!Agilent Technologies,E5071C,MY46418011,A.11.23
!Date: Mon Nov 13 13:36:28 2023
!Data & Calibration Information:
!Freq	S11:SOLT2(ON)	S21:SOLT2(ON)	S12:SOLT2(ON)	S22:SOLT2(ON)
!PortZ  Port1:50+j0    Port2:50+j0
!Above PortZ is port z conversion or system Z0 setting when saving the data.
!When reading, reference impedance value at option line is always used.
# Hz S dB R 50
9000000000	-8.933181e+000	4.473562e+001	-3.620540e+001	2.257633e+001	-3.620233e+001	2.285504e+001	-9.644809e+000	1.946868e+001
9000625000	-8.945830e+000	4.175513e+001	-3.620040e+001	1.986009e+001	-3.619005e+001	2.010854e+001	-9.544760e+000	1.596925e+001
9001250000	-8.967771e+000	3.885212e+001	-3.619354e+001	1.717837e+001	-3.622441e+001	1.736847e+001	-9.459307e+000	1.266600e+001
9001875000	-8.988576e+000	3.587067e+001	-3.620129e+001	1.436634e+001	-3.618735e+001	1.470154e+001	-9.368941e+000	9.247946e+000
9002500000	-8.988552e+000	3.292663e+001	-3.616702e+001	1.177567e+001	-3.619323e+001	1.201018e+001	-9.277725e+000	6.067042e+000
9003125000	-9.011520e+000	3.000965e+001	-3.616729e+001	9.070639e+000	-3.618507e+001	9.364481e+000	-9.164001e+000	2.768500e+000
9003750000	-9.023290e+000	2.701733e+001	-3.615355e+001	6.206872e+000	-3.616465e+001	6.288446e+000	-9.061247e+000	-4.256575e-001
9004375000	-9.032128e+000	2.408603e+001	-3.614149e+001	3.462487e+000	-3.612634e+001	3.487951e+000	-8.963002e+000	-3.683030e+000
9005000000	-9.047878e+000	2.108485e+001	-3.611098e+001	6.544132e-001	-3.610257e+001	8.168122e-001	-8.859023e+000	-6.777589e+000
9005625000	-9.060430e+000	1.813807e+001	-3.607408e+001	-2.287049e+000	-3.607959e+001	-2.219539e+000	-8.755361e+000	-9.856554e+000
9006250000	-9.065199e+000	1.518654e+001	-3.603382e+001	-5.328816e+000	-3.603118e+001	-4.979145e+000	-8.642036e+000	-1.285410e+001
9006875000	-9.071577e+000	1.213103e+001	-3.603365e+001	-8.039556e+000	-3.602701e+001	-7.926850e+000	-8.548266e+000	-1.590624e+001
9007500000	-9.083850e+000	9.293748e+000	-3.599435e+001	-1.113590e+001	-3.601830e+001	-1.086242e+001	-8.451686e+000	-1.890897e+001
9008125000	-9.075576e+000	6.298259e+000	-3.598169e+001	-1.402012e+001	-3.596584e+001	-1.377804e+001	-8.332456e+000	-2.182218e+001
9008750000	-9.068295e+000	3.325320e+000	-3.595467e+001	-1.695222e+001	-3.595885e+001	-1.671984e+001	-8.245209e+000	-2.468786e+001
9009375000	-9.071154e+000	3.682872e-001	-3.591603e+001	-2.007239e+001	-3.592888e+001	-1.980027e+001	-8.134399e+000	-2.752806e+001
9010000000	-9.069580e+000	-2.574738e+000	-3.589337e+001	-2.283326e+001	-3.590970e+001	-2.275874e+001	-8.035442e+000	-3.035836e+001
9010625000	-9.061756e+000	-5.571247e+000	-3.587606e+001	-2.594033e+001	-3.589768e+001	-2.568695e+001	-7.951067e+000	-3.315930e+001
9011250000	-9.048637e+000	-8.551552e+000	-3.585550e+001	-2.880144e+001	-3.589011e+001	-2.878370e+001	-7.853502e+000	-3.593063e+001
9011875000	-9.034113e+000	-1.148063e+001	-3.585435e+001	-3.202994e+001	-3.586363e+001	-3.183249e+001	-7.773396e+000	-3.860390e+001
9012500000	-9.023453e+000	-1.444041e+001	-3.582157e+001	-3.515566e+001	-3.582573e+001	-3.476949e+001	-7.679550e+000	-4.133192e+001
9013125000	-9.002012e+000	-1.738595e+001	-3.580925e+001	-3.812343e+001	-3.583123e+001	-3.791767e+001	-7.594623e+000	-4.409428e+001
9013750000	-8.996570e+000	-2.022991e+001	-3.582233e+001	-4.115603e+001	-3.581529e+001	-4.087137e+001	-7.504309e+000	-4.671144e+001
9014375000	-8.967214e+000	-2.324483e+001	-3.579144e+001	-4.410686e+001	-3.578984e+001	-4.388749e+001	-7.433800e+000	-4.928105e+001
9015000000	-8.956949e+000	-2.617305e+001	-3.578101e+001	-4.717669e+001	-3.578530e+001	-4.687742e+001	-7.339482e+000	-5.184073e+001
9015625000	-8.925063e+000	-2.911543e+001	-3.577840e+001	-5.019624e+001	-3.579696e+001	-4.997795e+001	-7.265920e+000	-5.440014e+001
9016250000	-8.900352e+000	-3.197984e+001	-3.575064e+001	-5.321707e+001	-3.577085e+001	-5.303839e+001	-7.184956e+000	-5.689874e+001
9016875000	-8.878142e+000	-3.487549e+001	-3.576554e+001	-5.624823e+001	-3.577538e+001	-5.606109e+001	-7.111739e+000	-5.949695e+001
9017500000	-8.833265e+000	-3.776407e+001	-3.574052e+001	-5.929608e+001	-3.573498e+001	-5.905510e+001	-7.038046e+000	-6.199404e+001
9018125000	-8.808935e+000	-4.069053e+001	-3.573350e+001	-6.239240e+001	-3.575711e+001	-6.219825e+001	-6.986499e+000	-6.433503e+001
9018750000	-8.776331e+000	-4.352169e+001	-3.570586e+001	-6.546624e+001	-3.573057e+001	-6.520568e+001	-6.904869e+000	-6.680475e+001
9019375000	-8.743551e+000	-4.642815e+001	-3.572089e+001	-6.858654e+001	-3.572921e+001	-6.839224e+001	-6.848220e+000	-6.925707e+001
9020000000	-8.711439e+000	-4.926093e+001	-3.572208e+001	-7.157945e+001	-3.570521e+001	-7.145983e+001	-6.791195e+000	-7.163291e+001
9020625000	-8.667811e+000	-5.213724e+001	-3.569704e+001	-7.457315e+001	-3.569543e+001	-7.445614e+001	-6.728472e+000	-7.401825e+001
9021250000	-8.628074e+000	-5.500001e+001	-3.566709e+001	-7.782683e+001	-3.568643e+001	-7.761705e+001	-6.672985e+000	-7.643867e+001
9021875000	-8.602759e+000	-5.780997e+001	-3.565958e+001	-8.093597e+001	-3.564782e+001	-8.070526e+001	-6.615157e+000	-7.872894e+001
9022500000	-8.551187e+000	-6.061981e+001	-3.566199e+001	-8.405369e+001	-3.568011e+001	-8.390495e+001	-6.569816e+000	-8.108305e+001
9023125000	-8.518475e+000	-6.341739e+001	-3.566138e+001	-8.734754e+001	-3.565213e+001	-8.713258e+001	-6.531852e+000	-8.335683e+001
9023750000	-8.478904e+000	-6.628898e+001	-3.568029e+001	-9.062576e+001	-3.564619e+001	-9.024662e+001	-6.484707e+000	-8.569533e+001
9024375000	-8.440834e+000	-6.899924e+001	-3.565691e+001	-9.366672e+001	-3.569029e+001	-9.347591e+001	-6.438677e+000	-8.792962e+001
9025000000	-8.397673e+000	-7.174207e+001	-3.567395e+001	-9.694001e+001	-3.570068e+001	-9.666194e+001	-6.400135e+000	-9.023327e+001
9025625000	-8.352450e+000	-7.455079e+001	-3.568195e+001	-1.000495e+002	-3.570170e+001	-9.991351e+001	-6.356595e+000	-9.247460e+001
9026250000	-8.307161e+000	-7.736669e+001	-3.571011e+001	-1.032656e+002	-3.572281e+001	-1.032645e+002	-6.335395e+000	-9.473479e+001
9026875000	-8.264159e+000	-8.006372e+001	-3.574412e+001	-1.064896e+002	-3.572815e+001	-1.061771e+002	-6.293340e+000	-9.698495e+001
9027500000	-8.227039e+000	-8.286565e+001	-3.574790e+001	-1.096625e+002	-3.576538e+001	-1.093872e+002	-6.256179e+000	-9.913098e+001
9028125000	-8.198745e+000	-8.556528e+001	-3.577319e+001	-1.127966e+002	-3.577764e+001	-1.126769e+002	-6.234174e+000	-1.013855e+002
9028750000	-8.143076e+000	-8.832392e+001	-3.581315e+001	-1.160172e+002	-3.581399e+001	-1.157188e+002	-6.212973e+000	-1.035799e+002
9029375000	-8.101569e+000	-9.097235e+001	-3.584870e+001	-1.191029e+002	-3.584647e+001	-1.190502e+002	-6.194829e+000	-1.057264e+002
9030000000	-8.073614e+000	-9.373742e+001	-3.585376e+001	-1.222376e+002	-3.589929e+001	-1.220199e+002	-6.169010e+000	-1.078776e+002
9030625000	-8.042755e+000	-9.638540e+001	-3.593587e+001	-1.253157e+002	-3.592681e+001	-1.250346e+002	-6.155925e+000	-1.100184e+002
9031250000	-8.008639e+000	-9.903085e+001	-3.594441e+001	-1.283691e+002	-3.596058e+001	-1.283007e+002	-6.128002e+000	-1.121484e+002
9031875000	-7.974125e+000	-1.017378e+002	-3.600717e+001	-1.316679e+002	-3.599400e+001	-1.314295e+002	-6.115637e+000	-1.142630e+002
9032500000	-7.936071e+000	-1.043233e+002	-3.603543e+001	-1.345913e+002	-3.604149e+001	-1.345062e+002	-6.112067e+000	-1.163853e+002
9033125000	-7.902817e+000	-1.069015e+002	-3.606581e+001	-1.374950e+002	-3.610176e+001	-1.374562e+002	-6.104675e+000	-1.184783e+002
9033750000	-7.870363e+000	-1.095419e+002	-3.613816e+001	-1.405722e+002	-3.613702e+001	-1.403558e+002	-6.084480e+000	-1.205681e+002
9034375000	-7.842945e+000	-1.120830e+002	-3.616408e+001	-1.436603e+002	-3.618751e+001	-1.434210e+002	-6.079046e+000	-1.226768e+002
9035000000	-7.811334e+000	-1.146583e+002	-3.623663e+001	-1.463967e+002	-3.622327e+001	-1.464877e+002	-6.077942e+000	-1.247871e+002
9035625000	-7.784734e+000	-1.173020e+002	-3.628265e+001	-1.495080e+002	-3.628284e+001	-1.493484e+002	-6.073282e+000	-1.269172e+002
9036250000	-7.749586e+000	-1.197889e+002	-3.630512e+001	-1.525183e+002	-3.631156e+001	-1.522886e+002	-6.064092e+000	-1.289533e+002
9036875000	-7.722830e+000	-1.223255e+002	-3.635887e+001	-1.554230e+002	-3.635499e+001	-1.551634e+002	-6.059849e+000	-1.309897e+002
9037500000	-7.695872e+000	-1.248979e+002	-3.641280e+001	-1.583216e+002	-3.640250e+001	-1.580693e+002	-6.058961e+000	-1.330526e+002
9038125000	-7.679229e+000	-1.274075e+002	-3.645064e+001	-1.612409e+002	-3.646746e+001	-1.610672e+002	-6.067973e+000	-1.351456e+002
9038750000	-7.651453e+000	-1.298095e+002	-3.650980e+001	-1.640381e+002	-3.650866e+001	-1.637729e+002	-6.076435e+000	-1.371860e+002
9039375000	-7.620342e+000	-1.322775e+002	-3.654584e+001	-1.667780e+002	-3.654857e+001	-1.666632e+002	-6.081604e+000	-1.393164e+002
9040000000	-7.598283e+000	-1.348709e+002	-3.660783e+001	-1.696146e+002	-3.658850e+001	-1.694300e+002	-6.078446e+000	-1.413670e+002
9040625000	-7.578793e+000	-1.372460e+002	-3.662785e+001	-1.722632e+002	-3.664278e+001	-1.721061e+002	-6.086958e+000	-1.434666e+002
9041250000	-7.554041e+000	-1.396764e+002	-3.665555e+001	-1.750978e+002	-3.665910e+001	-1.747945e+002	-6.093986e+000	-1.454728e+002
9041875000	-7.538828e+000	-1.421675e+002	-3.668325e+001	-1.777233e+002	-3.669661e+001	-1.774958e+002	-6.110144e+000	-1.476045e+002
9042500000	-7.504584e+000	-1.445932e+002	-3.670741e+001	1.795978e+002	-3.672335e+001	1.798298e+002	-6.111634e+000	-1.496107e+002
9043125000	-7.489385e+000	-1.470123e+002	-3.671405e+001	1.767923e+002	-3.671369e+001	1.769217e+002	-6.121061e+000	-1.517466e+002
9043750000	-7.469644e+000	-1.494401e+002	-3.672243e+001	1.740471e+002	-3.672614e+001	1.744321e+002	-6.141895e+000	-1.537660e+002
9044375000	-7.448429e+000	-1.518052e+002	-3.672556e+001	1.712336e+002	-3.674344e+001	1.716813e+002	-6.161758e+000	-1.559370e+002
9045000000	-7.434347e+000	-1.542317e+002	-3.672955e+001	1.685572e+002	-3.671923e+001	1.689218e+002	-6.181137e+000	-1.580061e+002
9045625000	-7.408618e+000	-1.565875e+002	-3.670165e+001	1.658024e+002	-3.670574e+001	1.661404e+002	-6.186984e+000	-1.601262e+002
9046250000	-7.384010e+000	-1.589690e+002	-3.669564e+001	1.627735e+002	-3.669067e+001	1.631600e+002	-6.215519e+000	-1.621932e+002
9046875000	-7.373284e+000	-1.613300e+002	-3.670788e+001	1.600157e+002	-3.669808e+001	1.603006e+002	-6.225902e+000	-1.644139e+002
9047500000	-7.356290e+000	-1.637457e+002	-3.669646e+001	1.571688e+002	-3.668888e+001	1.574032e+002	-6.256578e+000	-1.665426e+002
9048125000	-7.334801e+000	-1.660337e+002	-3.666576e+001	1.542112e+002	-3.668213e+001	1.544446e+002	-6.277201e+000	-1.686634e+002
9048750000	-7.320394e+000	-1.684738e+002	-3.666396e+001	1.513559e+002	-3.666982e+001	1.515910e+002	-6.304100e+000	-1.708788e+002
9049375000	-7.307621e+000	-1.708328e+002	-3.666729e+001	1.483487e+002	-3.666647e+001	1.485005e+002	-6.331147e+000	-1.730139e+002
9050000000	-7.303189e+000	-1.731542e+002	-3.665252e+001	1.454122e+002	-3.666097e+001	1.456264e+002	-6.360622e+000	-1.751861e+002
9050625000	-7.277880e+000	-1.755147e+002	-3.666189e+001	1.423930e+002	-3.666781e+001	1.426098e+002	-6.388976e+000	-1.773708e+002
9051250000	-7.268877e+000	-1.779015e+002	-3.665929e+001	1.393051e+002	-3.665150e+001	1.397228e+002	-6.418911e+000	-1.795766e+002
9051875000	-7.253146e+000	1.798053e+002	-3.664377e+001	1.363846e+002	-3.665913e+001	1.365966e+002	-6.453513e+000	1.781709e+002
9052500000	-7.252141e+000	1.774824e+002	-3.663074e+001	1.333175e+002	-3.665256e+001	1.335533e+002	-6.485620e+000	1.759257e+002
9053125000	-7.230510e+000	1.751083e+002	-3.665069e+001	1.303278e+002	-3.663800e+001	1.305889e+002	-6.517464e+000	1.736976e+002
9053750000	-7.214822e+000	1.727554e+002	-3.663347e+001	1.271879e+002	-3.662735e+001	1.274446e+002	-6.556270e+000	1.714363e+002
9054375000	-7.209116e+000	1.703986e+002	-3.661594e+001	1.242072e+002	-3.661865e+001	1.243020e+002	-6.594274e+000	1.691166e+002
9055000000	-7.195035e+000	1.680877e+002	-3.661459e+001	1.209100e+002	-3.661000e+001	1.211923e+002	-6.637115e+000	1.668201e+002
9055625000	-7.191286e+000	1.657046e+002	-3.661680e+001	1.177880e+002	-3.661430e+001	1.179729e+002	-6.679672e+000	1.644709e+002
9056250000	-7.182854e+000	1.634235e+002	-3.660906e+001	1.147419e+002	-3.661923e+001	1.146345e+002	-6.723385e+000	1.621166e+002
9056875000	-7.175476e+000	1.610989e+002	-3.662109e+001	1.114925e+002	-3.663061e+001	1.117597e+002	-6.779619e+000	1.597772e+002
9057500000	-7.163808e+000	1.587042e+002	-3.665066e+001	1.080901e+002	-3.664251e+001	1.083071e+002	-6.826289e+000	1.574090e+002
9058125000	-7.158418e+000	1.564016e+002	-3.663678e+001	1.049387e+002	-3.664427e+001	1.049464e+002	-6.875279e+000	1.550689e+002
9058750000	-7.157585e+000	1.540489e+002	-3.665983e+001	1.015561e+002	-3.666223e+001	1.016363e+002	-6.927045e+000	1.526560e+002
9059375000	-7.148769e+000	1.517303e+002	-3.668922e+001	9.820596e+001	-3.671728e+001	9.838639e+001	-6.984248e+000	1.502488e+002
9060000000	-7.143772e+000	1.493296e+002	-3.673423e+001	9.497387e+001	-3.673826e+001	9.504628e+001	-7.037058e+000	1.477655e+002
9060625000	-7.150485e+000	1.470213e+002	-3.677597e+001	9.158626e+001	-3.677291e+001	9.185504e+001	-7.093649e+000	1.453273e+002
9061250000	-7.143585e+000	1.446629e+002	-3.684771e+001	8.815611e+001	-3.684425e+001	8.847556e+001	-7.149013e+000	1.428231e+002
9061875000	-7.142635e+000	1.423047e+002	-3.685877e+001	8.505154e+001	-3.688115e+001	8.508013e+001	-7.220081e+000	1.403578e+002
9062500000	-7.143667e+000	1.399887e+002	-3.694370e+001	8.175895e+001	-3.694477e+001	8.189092e+001	-7.267668e+000	1.378307e+002
9063125000	-7.144380e+000	1.376460e+002	-3.701798e+001	7.840778e+001	-3.700922e+001	7.854654e+001	-7.342485e+000	1.353589e+002
9063750000	-7.143238e+000	1.352855e+002	-3.706719e+001	7.511073e+001	-3.709271e+001	7.529121e+001	-7.404040e+000	1.328134e+002
9064375000	-7.152310e+000	1.329611e+002	-3.716335e+001	7.184563e+001	-3.717167e+001	7.199386e+001	-7.473059e+000	1.302365e+002
9065000000	-7.155905e+000	1.305643e+002	-3.725224e+001	6.837775e+001	-3.725767e+001	6.863898e+001	-7.545777e+000	1.276576e+002
9065625000	-7.159519e+000	1.282738e+002	-3.735461e+001	6.533206e+001	-3.737746e+001	6.542772e+001	-7.608852e+000	1.251117e+002
9066250000	-7.172635e+000	1.258967e+002	-3.746270e+001	6.222474e+001	-3.746720e+001	6.223081e+001	-7.682556e+000	1.224642e+002
9066875000	-7.182117e+000	1.235702e+002	-3.759612e+001	5.901479e+001	-3.757713e+001	5.923728e+001	-7.748152e+000	1.198222e+002
9067500000	-7.179340e+000	1.212258e+002	-3.770847e+001	5.604970e+001	-3.771362e+001	5.621400e+001	-7.818091e+000	1.172230e+002
9068125000	-7.184380e+000	1.188764e+002	-3.785157e+001	5.307637e+001	-3.784682e+001	5.303236e+001	-7.882264e+000	1.145304e+002
9068750000	-7.190444e+000	1.164749e+002	-3.796711e+001	5.019445e+001	-3.798119e+001	5.019054e+001	-7.949796e+000	1.118770e+002
9069375000	-7.214954e+000	1.141373e+002	-3.808162e+001	4.726056e+001	-3.809266e+001	4.752274e+001	-8.003302e+000	1.091269e+002
9070000000	-7.220105e+000	1.118308e+002	-3.820480e+001	4.450851e+001	-3.821433e+001	4.475620e+001	-8.086382e+000	1.064257e+002
9070625000	-7.226202e+000	1.094292e+002	-3.834834e+001	4.174954e+001	-3.834272e+001	4.199061e+001	-8.150517e+000	1.036048e+002
9071250000	-7.233679e+000	1.070935e+002	-3.844350e+001	3.915370e+001	-3.843600e+001	3.924594e+001	-8.200936e+000	1.009607e+002
9071875000	-7.242291e+000	1.047201e+002	-3.856395e+001	3.667487e+001	-3.857551e+001	3.657388e+001	-8.275773e+000	9.813043e+001
9072500000	-7.276568e+000	1.023841e+002	-3.869731e+001	3.370984e+001	-3.868444e+001	3.406394e+001	-8.322527e+000	9.535768e+001
9073125000	-7.278387e+000	9.996836e+001	-3.881020e+001	3.123019e+001	-3.881610e+001	3.149460e+001	-8.395172e+000	9.256615e+001
9073750000	-7.282786e+000	9.763582e+001	-3.889469e+001	2.887084e+001	-3.891904e+001	2.921572e+001	-8.445945e+000	8.962720e+001
9074375000	-7.309837e+000	9.529450e+001	-3.907601e+001	2.640531e+001	-3.906895e+001	2.670763e+001	-8.494199e+000	8.685389e+001
9075000000	-7.327428e+000	9.289797e+001	-3.915420e+001	2.412114e+001	-3.917559e+001	2.434525e+001	-8.544668e+000	8.401494e+001
9075625000	-7.342050e+000	9.050294e+001	-3.927417e+001	2.203867e+001	-3.930340e+001	2.214662e+001	-8.588366e+000	8.116540e+001
9076250000	-7.359227e+000	8.811464e+001	-3.936402e+001	1.984337e+001	-3.933099e+001	2.010793e+001	-8.617122e+000	7.823557e+001
9076875000	-7.373400e+000	8.577820e+001	-3.944463e+001	1.763872e+001	-3.946483e+001	1.810723e+001	-8.652946e+000	7.538678e+001
9077500000	-7.403217e+000	8.347986e+001	-3.953490e+001	1.576696e+001	-3.950722e+001	1.612992e+001	-8.699644e+000	7.241435e+001
9078125000	-7.422082e+000	8.104110e+001	-3.953438e+001	1.401484e+001	-3.954320e+001	1.411633e+001	-8.735536e+000	6.948249e+001
9078750000	-7.435675e+000	7.872185e+001	-3.956162e+001	1.229209e+001	-3.958866e+001	1.224168e+001	-8.749781e+000	6.654350e+001
9079375000	-7.450632e+000	7.631548e+001	-3.960783e+001	1.006764e+001	-3.956746e+001	1.025256e+001	-8.785434e+000	6.359458e+001
9080000000	-7.488510e+000	7.402642e+001	-3.956200e+001	8.210006e+000	-3.956862e+001	8.321289e+000	-8.794453e+000	6.066294e+001
9080625000	-7.499402e+000	7.162949e+001	-3.952112e+001	6.319496e+000	-3.952698e+001	6.458398e+000	-8.822193e+000	5.763492e+001
9081250000	-7.540451e+000	6.922342e+001	-3.951349e+001	3.855126e+000	-3.947397e+001	4.021167e+000	-8.810052e+000	5.467275e+001
9081875000	-7.548058e+000	6.683406e+001	-3.942373e+001	1.944436e+000	-3.943097e+001	2.198573e+000	-8.817912e+000	5.172133e+001
9082500000	-7.573871e+000	6.449736e+001	-3.935030e+001	-3.212787e-001	-3.935645e+001	1.221253e-002	-8.811783e+000	4.876960e+001
9083125000	-7.595095e+000	6.208006e+001	-3.926459e+001	-2.690087e+000	-3.924385e+001	-2.587880e+000	-8.830489e+000	4.574021e+001
9083750000	-7.618116e+000	5.979452e+001	-3.921455e+001	-5.321209e+000	-3.922323e+001	-4.994489e+000	-8.826251e+000	4.269093e+001
9084375000	-7.645292e+000	5.729488e+001	-3.910838e+001	-7.914159e+000	-3.912593e+001	-7.762491e+000	-8.819539e+000	3.972466e+001
9085000000	-7.673106e+000	5.488949e+001	-3.899144e+001	-1.054500e+001	-3.903349e+001	-1.068684e+001	-8.791689e+000	3.669063e+001
9085625000	-7.692685e+000	5.250231e+001	-3.894898e+001	-1.356700e+001	-3.894468e+001	-1.317384e+001	-8.782128e+000	3.369048e+001
9086250000	-7.716872e+000	5.011620e+001	-3.885345e+001	-1.630409e+001	-3.888287e+001	-1.603416e+001	-8.761630e+000	3.074997e+001
9086875000	-7.747587e+000	4.768815e+001	-3.876263e+001	-1.917357e+001	-3.878636e+001	-1.888930e+001	-8.735559e+000	2.777353e+001
9087500000	-7.771823e+000	4.531676e+001	-3.870864e+001	-2.207517e+001	-3.871506e+001	-2.174455e+001	-8.699207e+000	2.485371e+001
9088125000	-7.797431e+000	4.283678e+001	-3.863704e+001	-2.517984e+001	-3.865132e+001	-2.487131e+001	-8.675837e+000	2.181121e+001
9088750000	-7.822083e+000	4.040294e+001	-3.857433e+001	-2.797559e+001	-3.854652e+001	-2.811991e+001	-8.645198e+000	1.894068e+001
9089375000	-7.848028e+000	3.799507e+001	-3.852145e+001	-3.120450e+001	-3.850684e+001	-3.103771e+001	-8.614492e+000	1.594295e+001
9090000000	-7.876297e+000	3.563989e+001	-3.842309e+001	-3.448022e+001	-3.843539e+001	-3.445110e+001	-8.571746e+000	1.304370e+001
9090625000	-7.909996e+000	3.313902e+001	-3.840169e+001	-3.777030e+001	-3.839442e+001	-3.744327e+001	-8.543921e+000	1.012018e+001
9091250000	-7.927592e+000	3.070354e+001	-3.833912e+001	-4.131078e+001	-3.833199e+001	-4.086388e+001	-8.500504e+000	7.268268e+000
9091875000	-7.962878e+000	2.821871e+001	-3.829741e+001	-4.480083e+001	-3.831532e+001	-4.427698e+001	-8.449240e+000	4.431035e+000
9092500000	-7.990520e+000	2.575919e+001	-3.825773e+001	-4.800261e+001	-3.827400e+001	-4.799209e+001	-8.402842e+000	1.583415e+000
9093125000	-8.022034e+000	2.332817e+001	-3.822992e+001	-5.139323e+001	-3.825309e+001	-5.136903e+001	-8.358486e+000	-1.282178e+000
9093750000	-8.043077e+000	2.078668e+001	-3.826184e+001	-5.496649e+001	-3.824750e+001	-5.484549e+001	-8.313092e+000	-4.042238e+000
9094375000	-8.075248e+000	1.832402e+001	-3.821932e+001	-5.857904e+001	-3.823604e+001	-5.834255e+001	-8.259674e+000	-6.810688e+000
