# GHz   S   MA   R 50.00
!     FREQ        S11M         S11A      S21M         S21A      S12M         S12A      S22M         S22A
   0.040000000  1.086210E-02   15.653  9.915038E-01  -45.474  9.929729E-01  -45.434  8.142917E-03   12.796
   0.094900000  1.264837E-02  -43.089  9.901150E-01 -107.427  9.901811E-01 -107.436  1.265362E-02  -50.036
   0.149800000  5.124638E-03  -70.055  9.873204E-01 -169.455  9.879605E-01 -169.434  5.257060E-03  -97.497
   0.204700000  6.553834E-03  -28.177  9.842337E-01  128.548  9.852283E-01  128.613  5.159732E-03  -29.094
   0.259600000  6.411305E-03  -57.034  9.830794E-01   66.675  9.837603E-01   66.654  8.065437E-03  -72.933
   0.314500000  3.989819E-03  -31.258  9.811424E-01    4.724  9.812335E-01    4.727  2.820668E-03 -108.663
   0.369400000  7.244420E-03  -41.623  9.794160E-01  -57.224  9.801442E-01  -57.181  4.444207E-03  -40.267
   0.424300000  7.060835E-03  -59.614  9.774809E-01 -119.194  9.792609E-01 -119.107  8.494282E-03  -76.947
   0.479200000  8.586219E-03  -49.997  9.771763E-01  179.009  9.773136E-01  178.966  7.086246E-03 -109.332
   0.534100000  1.133687E-02  -79.613  9.752830E-01  117.051  9.767795E-01  116.975  3.891395E-03 -127.718
   0.589000000  6.669971E-03 -103.604  9.750387E-01   55.165  9.753440E-01   55.157  2.464231E-03  -75.275
   0.643900000  7.648737E-03  -70.658  9.737120E-01   -6.786  9.737291E-01   -6.719  6.476881E-03  -85.989
   0.698800000  1.080747E-02  -94.331  9.727052E-01  -68.688  9.728328E-01  -68.687  6.392815E-03 -128.798
   0.753700000  6.874571E-03 -129.141  9.714828E-01 -130.565  9.722977E-01 -130.552  4.866219E-04 -133.476
   0.808600000  5.520889E-03  -84.800  9.713686E-01  167.547  9.714279E-01  167.557  6.780542E-03  -61.005
   0.863500000  6.061424E-03 -100.817  9.692825E-01  105.638  9.703613E-01  105.679  6.469064E-03  -98.562
   0.918400000  3.251976E-03  -86.717  9.690347E-01   43.773  9.700550E-01   43.753  4.306389E-03 -108.544
   0.973300000  9.622305E-03  -66.557  9.679342E-01  -18.109  9.686687E-01  -18.128  7.228966E-03 -101.789
   1.028200000  1.153768E-02 -107.273  9.671058E-01  -80.025  9.676054E-01  -80.006  5.690114E-03 -146.376
   1.083100000  5.789590E-03 -103.310  9.664938E-01 -141.883  9.672870E-01 -141.912  3.399541E-03  -57.600
   1.138000000  1.167294E-02  -88.598  9.658278E-01  156.203  9.666689E-01  156.232  1.081681E-02 -101.963
   1.192900000  1.261047E-02 -130.086  9.647656E-01   94.339  9.652981E-01   94.341  9.410364E-03 -156.458
   1.247800000  3.467024E-03 -133.816  9.638301E-01   32.441  9.646800E-01   32.463  1.220031E-03  -93.695
   1.302700000  1.097871E-02  -81.627  9.635362E-01  -29.439  9.643391E-01  -29.430  9.058701E-03 -108.009
   1.357600000  1.224034E-02 -124.098  9.623595E-01  -91.345  9.635247E-01  -91.292  6.625148E-03 -173.653
   1.412500000  6.061870E-03 -103.716  9.620863E-01 -153.197  9.629623E-01 -153.211  4.956165E-03  -44.669
   1.467400000  1.541496E-02 -105.828  9.615307E-01  144.897  9.620070E-01  144.931  1.221906E-02 -108.662
   1.522300000  1.393988E-02 -146.254  9.604924E-01   83.049  9.617278E-01   83.013  1.078499E-02  179.762
   1.577200000  3.160273E-03 -140.384  9.599434E-01   21.161  9.608238E-01   21.157  1.868007E-03  -14.331
   1.632100000  1.235477E-02  -98.366  9.598349E-01  -40.751  9.597844E-01  -40.747  1.080277E-02 -113.567
   1.687000000  1.137371E-02 -141.818  9.587466E-01 -102.615  9.594296E-01 -102.639  6.771460E-03  174.368
   1.741900000  5.512837E-03  -91.830  9.580877E-01 -164.501  9.586669E-01 -164.503  5.731432E-03  -56.008
   1.796800000  1.647231E-02 -108.471  9.577766E-01  133.601  9.579986E-01  133.646  1.427057E-02 -129.806
   1.851700000  1.422335E-02 -152.791  9.568544E-01   71.756  9.572845E-01   71.749  9.686006E-03  151.554
   1.906600000  5.495932E-03 -122.768  9.564380E-01    9.857  9.567843E-01    9.871  6.568912E-03  -31.484
   1.961500000  1.476589E-02 -123.096  9.559494E-01  -52.012  9.563934E-01  -51.994  1.454996E-02 -124.041
   2.016400000  1.204042E-02 -172.946  9.549670E-01 -113.877  9.557593E-01 -113.877  9.918199E-03  161.741
   2.071300000  2.360545E-03  -76.774  9.542216E-01 -175.744  9.550883E-01 -175.733  3.531317E-03  -41.372
   2.126200000  1.352923E-02 -116.078  9.540598E-01  122.341  9.553216E-01  122.351  1.140167E-02 -139.294
   2.181100000  1.075022E-02 -167.236  9.536476E-01   60.504  9.541045E-01   60.506  7.538244E-03  140.913
   2.236000000  2.878378E-03  -82.491  9.530435E-01   -1.386  9.536686E-01   -1.388  4.405874E-03  -48.163
   2.290900000  1.195800E-02 -111.504  9.523826E-01  -63.286  9.534119E-01  -63.244  8.686089E-03 -146.629
   2.345800000  7.861197E-03 -150.514  9.520767E-01 -125.136  9.524799E-01 -125.122  3.644155E-03   98.942
   2.400700000  7.598767E-03  -96.441  9.510684E-01  172.976  9.516457E-01  173.001  8.892687E-03  -69.260
   2.455600000  1.323985E-02 -130.432  9.504891E-01  111.103  9.514340E-01  111.096  1.118188E-02 -150.985
   2.510500000  6.674741E-03 -175.228  9.504444E-01   49.241  9.508389E-01   49.247  4.141371E-03  106.112
   2.565400000  6.474218E-03  -85.560  9.500055E-01  -12.651  9.501696E-01  -12.645  6.827256E-03  -78.013
   2.620300000  1.184201E-02 -121.463  9.494066E-01  -74.531  9.495671E-01  -74.505  7.527101E-03 -169.993
   2.675200000  6.929843E-03 -138.710  9.487087E-01 -136.385  9.489851E-01 -136.395  5.124247E-03   32.904
   2.730100000  8.986372E-03 -110.546  9.481487E-01  161.755  9.486352E-01  161.749  1.055957E-02  -74.776
   2.785000000  9.131739E-03 -136.910  9.474748E-01   99.845  9.476157E-01   99.896  7.221271E-03 -157.265
   2.839900000  3.080305E-03 -107.592  9.472183E-01   37.997  9.474280E-01   38.024  3.560752E-03  -26.439
   2.894800000  1.126543E-02  -92.275  9.460675E-01  -23.890  9.471043E-01  -23.845  1.039327E-02 -105.097
   2.949700000  1.085288E-02 -131.593  9.458840E-01  -85.778  9.466650E-01  -85.699  6.682503E-03  169.277
   3.004600000  5.382587E-03 -101.662  9.455375E-01 -147.620  9.461025E-01 -147.593  6.401809E-03  -19.830
   3.059500000  1.195016E-02  -98.240  9.450696E-01  150.519  9.459965E-01  150.534  1.078250E-02 -110.030
   3.114400000  1.050429E-02 -128.042  9.442435E-01   88.640  9.450098E-01   88.677  5.693182E-03  146.038
   3.169300000  7.860349E-03 -102.529  9.442656E-01   26.767  9.445938E-01   26.774  9.548428E-03  -22.836
   3.224200000  1.215069E-02 -114.216  9.433415E-01  -35.102  9.446395E-01  -35.070  1.199589E-02 -105.343
   3.279100000  7.658425E-03 -133.827  9.430937E-01  -96.990  9.435337E-01  -96.934  3.184590E-03  142.016
   3.334000000  7.850085E-03  -85.669  9.422806E-01 -158.822  9.435012E-01 -158.807  9.441979E-03  -43.294
   3.388900000  1.179109E-02 -107.268  9.420246E-01  139.312  9.426594E-01  139.312  1.018668E-02 -119.740
   3.443800000  7.640751E-03 -104.411  9.414151E-01   77.417  9.425423E-01   77.437  4.094769E-03   48.832
   3.498700000  1.434606E-02  -90.255  9.412975E-01   15.560  9.416476E-01   15.596  1.595695E-02  -52.356
   3.553600000  1.633333E-02 -125.617  9.407177E-01  -46.308  9.411535E-01  -46.302  1.400597E-02 -122.035
   3.608500000  6.694107E-03 -133.054  9.401348E-01 -108.190  9.403825E-01 -108.191  2.340044E-03   85.430
   3.663400000  1.096860E-02  -95.044  9.397246E-01 -170.048  9.408701E-01 -170.014  1.363033E-02  -53.444
   3.718300000  1.049566E-02 -127.823  9.397084E-01  128.094  9.397306E-01  128.124  9.824376E-03 -114.499
   3.773200000  5.333993E-03  -60.539  9.388803E-01   66.212  9.393718E-01   66.251  7.249482E-03  -29.020
   3.828100000  1.825092E-02  -75.984  9.382801E-01    4.360  9.390399E-01    4.383  1.899274E-02  -82.645
   3.883000000  1.801137E-02 -114.780  9.379962E-01  -57.475  9.386528E-01  -57.481  1.265810E-02 -156.310
   3.937900000  1.048114E-02 -100.643  9.378403E-01 -119.380  9.378679E-01 -119.283  8.882390E-03   15.072
   3.992800000  1.893829E-02  -99.997  9.370685E-01  178.762  9.379438E-01  178.792  2.059492E-02  -70.993
   4.047700000  1.594969E-02 -135.840  9.368725E-01  116.898  9.373451E-01  116.944  1.282794E-02 -136.193
   4.102600000  6.755266E-03  -93.211  9.362645E-01   55.034  9.371065E-01   55.060  7.591974E-03  -19.157
   4.157500000  1.857433E-02  -92.069  9.357972E-01   -6.839  9.369131E-01   -6.809  1.880911E-02  -85.437
   4.212400000  1.457270E-02 -122.843  9.355812E-01  -68.695  9.364721E-01  -68.686  8.728337E-03 -158.532
   4.267300000  1.168819E-02  -83.854  9.351394E-01 -130.558  9.363679E-01 -130.512  1.262137E-02  -20.480
   4.322200000  2.268696E-02 -101.409  9.346038E-01  167.566  9.351582E-01  167.557  2.305671E-02  -87.329
   4.377100000  1.754111E-02 -136.113  9.347219E-01  105.730  9.351554E-01  105.725  1.126570E-02 -155.070
   4.432000000  1.068195E-02  -99.602  9.335501E-01   43.843  9.353678E-01   43.858  1.110167E-02  -19.994
   4.486900000  1.962853E-02 -110.954  9.331047E-01  -18.031  9.344021E-01  -18.004  2.057620E-02  -83.318
   4.541800000  1.171229E-02 -138.524  9.334163E-01  -79.869  9.339820E-01  -79.883  7.797663E-03 -126.843
   4.596700000  1.237003E-02  -70.391  9.325790E-01 -141.730  9.337873E-01 -141.759  1.451636E-02  -47.353
   4.651600000  2.263126E-02 -104.111  9.327299E-01  156.400  9.326795E-01  156.389  2.143822E-02  -97.310
   4.706500000  1.225353E-02 -129.129  9.325077E-01   94.539  9.324171E-01   94.540  5.427420E-03 -123.279
   4.761400000  1.748397E-02  -75.897  9.317404E-01   32.662  9.325574E-01   32.672  1.967806E-02  -50.511
   4.816300000  2.678990E-02 -110.864  9.314356E-01  -29.217  9.316655E-01  -29.203  2.552573E-02 -102.378
   4.871200000  1.417448E-02 -139.298  9.313115E-01  -91.035  9.313890E-01  -91.031  7.672942E-03 -132.566
   4.926100000  1.728825E-02  -77.687  9.305290E-01 -152.940  9.313645E-01 -152.928  1.933670E-02  -58.648
   4.981000000  2.813915E-02 -112.698  9.303306E-01  145.225  9.307484E-01  145.219  2.522062E-02 -108.043
   5.035900000  1.423251E-02 -139.978  9.304050E-01   83.348  9.306408E-01   83.382  7.334117E-03 -133.174
   5.090800000  1.886593E-02  -76.805  9.294628E-01   21.472  9.298220E-01   21.505  2.054039E-02  -65.676
   5.145700000  2.923075E-02 -110.661  9.291712E-01  -40.393  9.294139E-01  -40.376  2.424655E-02 -117.522
   5.200600000  1.770831E-02 -132.583  9.286454E-01 -102.220  9.296837E-01 -102.214  3.899836E-03 -154.222
   5.255500000  2.037611E-02  -93.723  9.286913E-01 -164.136  9.289568E-01 -164.114  2.170791E-02  -57.526
   5.310400000  2.889565E-02 -121.843  9.283171E-01  134.024  9.282076E-01  134.023  2.557698E-02 -109.650
   5.365300000  1.470093E-02 -138.899  9.285189E-01   72.164  9.286237E-01   72.166  6.733581E-03 -120.776
   5.420200000  2.119826E-02  -91.024  9.274902E-01   10.299  9.279089E-01   10.295  2.222049E-02  -67.583
   5.475100000  2.969148E-02 -122.249  9.268250E-01  -51.571  9.269054E-01  -51.557  2.546685E-02 -114.312
   5.530000000  1.576507E-02 -136.579  9.271726E-01 -113.425  9.270952E-01 -113.398  5.973128E-03 -110.316
   5.584900000  2.304367E-02  -98.023  9.260370E-01 -175.278  9.267323E-01 -175.273  2.397702E-02  -65.095
   5.639800000  2.973520E-02 -129.461  9.259280E-01  122.847  9.260249E-01  122.888  2.756619E-02 -110.446
   5.694700000  1.290527E-02 -138.012  9.260480E-01   60.997  9.259261E-01   60.973  8.833591E-03 -105.644
   5.749600000  2.531221E-02  -98.899  9.252744E-01   -0.892  9.260158E-01   -0.873  2.623615E-02  -71.309
   5.804500000  2.977154E-02 -139.317  9.249420E-01  -62.743  9.253185E-01  -62.697  3.000221E-02 -109.557
   5.859400000  7.482112E-03 -151.612  9.252390E-01 -124.600  9.246719E-01 -124.583  1.463302E-02 -115.823
   5.914300000  2.601057E-02  -86.707  9.243049E-01  173.526  9.243671E-01  173.528  2.418499E-02  -87.979
   5.969200000  3.106020E-02 -130.718  9.238858E-01  111.658  9.244165E-01  111.690  2.576656E-02 -120.207
   6.024100000  1.133969E-02 -127.021  9.238062E-01   49.788  9.239158E-01   49.821  1.140782E-02 -102.140
   6.079000000  3.051025E-02  -96.586  9.231848E-01  -12.064  9.235429E-01  -12.058  2.868593E-02  -85.794
   6.133900000  3.424641E-02 -139.650  9.223641E-01  -73.930  9.232904E-01  -73.909  3.055288E-02 -125.839
   6.188800000  1.034650E-02 -138.318  9.228588E-01 -135.769  9.228301E-01 -135.778  1.118828E-02 -116.920
   6.243700000  3.082407E-02 -101.442  9.221278E-01  162.346  9.221510E-01  162.375  2.891242E-02  -85.521
   6.298600000  3.352446E-02 -148.720  9.217809E-01  100.480  9.220999E-01  100.475  3.347193E-02 -123.665
   6.353500000  4.949018E-03 -145.274  9.214386E-01   38.608  9.219577E-01   38.659  1.534502E-02 -130.415
   6.408400000  3.241011E-02  -93.269  9.213900E-01  -23.253  9.212925E-01  -23.207  2.666375E-02  -97.805
   6.463300000  3.539565E-02 -144.510  9.203648E-01  -85.111  9.209836E-01  -85.090  3.018373E-02 -132.678
   6.518200000  7.109025E-03 -140.599  9.205696E-01 -146.972  9.207116E-01 -146.952  1.153892E-02 -132.434
   6.573100000  3.416402E-02  -97.327  9.197762E-01  151.172  9.204106E-01  151.207  2.704999E-02  -98.327
   6.628000000  3.718115E-02 -146.807  9.198866E-01   89.295  9.195447E-01   89.343  2.953194E-02 -139.109
   6.682900000  8.857159E-03 -151.524  9.195206E-01   27.434  9.199512E-01   27.495  7.511345E-03 -133.651
   6.737800000  3.179279E-02 -100.754  9.188839E-01  -34.425  9.197383E-01  -34.374  2.575600E-02  -93.366
   6.792700000  3.330292E-02 -146.543  9.184707E-01  -96.283  9.188008E-01  -96.264  2.643827E-02 -135.916
   6.847600000  1.198449E-02 -116.266  9.187282E-01 -158.137  9.185643E-01 -158.104  9.075697E-03  -93.812
   6.902500000  3.815851E-02 -112.101  9.178525E-01  139.975  9.190021E-01  140.007  3.334190E-02  -95.618
   6.957400000  3.552068E-02 -157.363  9.172607E-01   78.146  9.178769E-01   78.185  3.037804E-02 -144.145
   7.012300000  1.082740E-02 -130.480  9.177845E-01   16.276  9.178926E-01   16.316  5.569830E-03  -78.393
   7.067200000  3.402623E-02 -121.338  9.170062E-01  -45.599  9.177466E-01  -45.574  3.505277E-02  -88.058
   7.122100000  2.675927E-02 -169.000  9.164119E-01 -107.461  9.169052E-01 -107.425  3.374336E-02 -135.042
   7.177000000  1.232072E-02  -84.321  9.164631E-01 -169.298  9.174569E-01 -169.262  1.461272E-02 -106.639
   7.231900000  4.226783E-02 -118.140  9.156849E-01  128.826  9.169299E-01  128.829  3.607666E-02 -104.067
   7.286800000  3.134017E-02 -168.306  9.153818E-01   66.973  9.159920E-01   66.981  3.069905E-02 -149.702
   7.341700000  1.375872E-02  -94.897  9.157404E-01    5.116  9.164371E-01    5.132  1.062813E-02  -83.132
   7.396600000  4.141485E-02 -128.171  9.148061E-01  -56.767  9.160197E-01  -56.736  3.971106E-02 -102.823
   7.451500000  2.791968E-02  178.783  9.142213E-01 -118.615  9.147912E-01 -118.607  3.372973E-02 -150.255
   7.506400000  1.581854E-02  -79.392  9.149624E-01  179.517  9.152366E-01  179.553  1.120113E-02  -94.553
   7.561300000  4.254926E-02 -129.523  9.137222E-01  117.666  9.144245E-01  117.679  3.930467E-02 -108.257
   7.616200000  2.418883E-02  176.344  9.136773E-01   55.808  9.135955E-01   55.833  3.104127E-02 -154.401
   7.671100000  2.045774E-02  -80.962  9.136896E-01   -6.043  9.144998E-01   -6.024  1.354474E-02  -87.631
   7.726000000  4.391054E-02 -134.350  9.130086E-01  -67.923  9.134586E-01  -67.909  4.047181E-02 -115.055
   7.780900000  2.329622E-02  172.795  9.125598E-01 -129.747  9.127700E-01 -129.737  2.898407E-02 -160.913
   7.835800000  2.258812E-02  -87.853  9.132901E-01  168.363  9.135767E-01  168.358  1.556952E-02  -81.654
   7.890700000  4.276704E-02 -139.859  9.115627E-01  106.501  9.125950E-01  106.535  4.155844E-02 -116.047
   7.945600000  1.683607E-02  171.352  9.119666E-01   44.640  9.125173E-01   44.680  2.615596E-02 -157.120
   8.000500000  3.037741E-02  -93.474  9.117999E-01  -17.234  9.128164E-01  -17.224  2.266911E-02  -87.350
   8.055400000  4.728348E-02 -148.054  9.109482E-01  -79.086  9.116148E-01  -79.081  4.561136E-02 -124.441
   8.110300000  1.473169E-02  162.135  9.106835E-01 -140.935  9.114248E-01 -140.886  2.538006E-02 -164.469
   8.165200000  3.473595E-02  -98.294  9.113820E-01  157.159  9.115223E-01  157.163  2.620130E-02  -90.049
   8.220100000  4.724387E-02 -157.879  9.102989E-01   95.341  9.103595E-01   95.326  4.745045E-02 -130.110
   8.275000000  1.389108E-02  146.079  9.095471E-01   33.513  9.105763E-01   33.508  2.485603E-02 -174.091
   8.329900000  3.599503E-02 -100.392  9.103472E-01  -28.415  9.106045E-01  -28.406  2.630800E-02  -93.793
   8.384800000  4.627208E-02 -160.442  9.091396E-01  -90.258  9.090303E-01  -90.254  4.610685E-02 -135.637
   8.439700000  7.014195E-03  161.915  9.090213E-01 -152.055  9.094735E-01 -152.082  1.984327E-02 -168.585
   8.494600000  4.324669E-02 -109.746  9.097001E-01  145.984  9.099323E-01  146.009  3.326672E-02  -98.933
   8.549500000  4.880249E-02 -169.809  9.083111E-01   84.162  9.082957E-01   84.189  4.955566E-02 -143.690
   8.604400000  3.802611E-03  148.017  9.081739E-01   22.342  9.087255E-01   22.368  1.868432E-02 -175.242
   8.659300000  4.639127E-02 -115.415  9.083164E-01  -39.596  9.087192E-01  -39.568  3.598505E-02 -104.676
   8.714200000  5.028320E-02 -176.687  9.074109E-01 -101.427  9.072818E-01 -101.408  4.950772E-02 -151.959
   8.769100000  7.721143E-04 -123.697  9.074446E-01 -163.215  9.082427E-01 -163.236  1.660384E-02 -179.575
   8.824000000  5.008493E-02 -122.474  9.073298E-01  134.844  9.080755E-01  134.845  3.895341E-02 -110.215
   8.878900000  4.973391E-02  175.846  9.061954E-01   73.035  9.063613E-01   73.061  4.990305E-02 -160.058
   8.933800000  2.275360E-03 -117.684  9.066629E-01   11.182  9.069415E-01   11.198  1.156576E-02  173.294
   8.988700000  5.002755E-02 -132.189  9.062456E-01  -50.769  9.065884E-01  -50.762  4.152760E-02 -111.603
   9.043600000  4.777369E-02  165.437  9.053178E-01 -112.582  9.056176E-01 -112.548  5.030893E-02 -164.477
   9.098500000  4.362216E-03  -83.826  9.057958E-01 -174.382  9.058232E-01 -174.425  8.996031E-03  173.122
   9.153400000  5.053418E-02 -143.974  9.050271E-01  123.647  9.054651E-01  123.665  4.487419E-02 -112.387
   9.208300000  4.424462E-02  148.132  9.037477E-01   61.874  9.046708E-01   61.866  5.295574E-02 -164.175
   9.263200000  1.552567E-02  -46.057  9.045371E-01    0.036  9.056346E-01    0.042  1.525213E-02 -176.748
   9.318100000  5.348540E-02 -142.036  9.042125E-01  -61.888  9.043368E-01  -61.903  4.387152E-02 -128.989
   9.373000000  4.168047E-02  146.764  9.034043E-01 -123.713  9.035367E-01 -123.712  4.785422E-02 -174.834
   9.427900000  1.538966E-02  -65.947  9.043452E-01  174.446  9.040904E-01  174.433  1.182643E-02 -164.588
   9.482800000  5.550373E-02 -151.629  9.030376E-01  112.492  9.029946E-01  112.526  4.617188E-02 -133.364
   9.537700000  3.972834E-02  136.988  9.024041E-01   50.713  9.026086E-01   50.739  4.686479E-02  179.168
   9.592600000  1.934892E-02  -73.691  9.032135E-01  -11.165  9.036885E-01  -11.138  1.286028E-02 -158.452
   9.647500000  5.753059E-02 -157.532  9.021768E-01  -73.105  9.023752E-01  -73.026  4.722611E-02 -141.895
   9.702400000  3.958306E-02  131.003  9.013488E-01 -134.851  9.016103E-01 -134.798  4.554087E-02  169.142
   9.757300000  1.750628E-02  -80.216  9.029043E-01  163.276  9.028407E-01  163.302  9.208072E-03 -169.107
   9.812200000  5.275821E-02 -165.476  9.008856E-01  101.354  9.022826E-01  101.359  4.306404E-02 -145.389
   9.867100000  3.078589E-02  120.796  9.008800E-01   39.590  9.013595E-01   39.605  3.807143E-02  166.621
   9.922000000  2.518663E-02  -99.473  9.014722E-01  -22.347  9.018313E-01  -22.326  1.372697E-02 -136.438
   9.976900000  5.610409E-02 -175.269  8.998987E-01  -84.261  9.011349E-01  -84.189  4.742634E-02 -152.314
  10.031800000  3.027452E-02  110.106  8.999050E-01 -145.995  9.004911E-01 -145.976  3.894040E-02  161.712
  10.086700000  2.794584E-02 -103.901  9.007046E-01  152.097  9.011383E-01  152.108  1.566663E-02 -147.163
  10.141600000  5.462154E-02  179.819  8.992708E-01   90.206  9.001310E-01   90.237  4.565973E-02 -162.120
