# Hz S  dB   R 50
15000000000 -0.20163287 -54.230782 -52.098907 -146.89453 -51.851864 -148.09262 -0.19559129 -57.437077
15005000000 -0.20180689 -54.659649 -52.098091 -147.1395 -51.88501 -148.35004 -0.19522987 -57.861755
15010000000 -0.20193729 -55.119987 -51.994141 -147.60992 -51.871399 -148.9218 -0.19529 -58.327759
15015000000 -0.20089155 -55.613106 -51.936916 -148.00365 -51.859646 -149.53555 -0.19500491 -58.829697
15020000000 -0.19874477 -56.139412 -51.856121 -148.40265 -51.783497 -149.92867 -0.19474711 -59.368046
15025000000 -0.19658807 -56.695023 -51.785358 -148.96121 -51.739616 -149.94749 -0.19458334 -59.940838
15030000000 -0.19493273 -57.285526 -51.696178 -149.37337 -51.669762 -150.65817 -0.19498505 -60.543495
15035000000 -0.19458117 -57.918583 -51.64431 -150.12483 -51.575649 -151.46082 -0.19438133 -61.177177
15040000000 -0.19624108 -58.580032 -51.563629 -150.99522 -51.48711 -151.93935 -0.19463643 -61.85334
15045000000 -0.1968516 -59.284512 -51.457729 -151.67754 -51.398823 -152.38879 -0.19477241 -62.56514
15050000000 -0.19840418 -60.024097 -51.4123 -152.63989 -51.303375 -153.11234 -0.19604811 -63.312515
15055000000 -0.19818254 -60.809467 -51.274456 -153.53122 -51.191647 -153.89989 -0.19789718 -64.099297
15060000000 -0.19726008 -61.635353 -51.122829 -154.47304 -51.071434 -154.85478 -0.19963595 -64.920074
15065000000 -0.19777294 -62.464436 -50.959644 -155.29771 -50.92067 -155.40991 -0.19989528 -65.730751
15070000000 -0.19770622 -63.288555 -50.802769 -156.38652 -50.733265 -156.20886 -0.20003 -66.544884
15075000000 -0.19798827 -64.113319 -50.612415 -157.21031 -50.54533 -156.914 -0.19900231 -67.356491
15080000000 -0.19794244 -64.939644 -50.357075 -158.06558 -50.426758 -157.60481 -0.19968103 -68.172157
15085000000 -0.19721591 -65.765411 -50.254536 -158.99883 -50.255154 -158.36153 -0.20076168 -68.994858
15090000000 -0.19807157 -66.590591 -50.070992 -159.94159 -50.017387 -159.89024 -0.19981959 -69.813042
15095000000 -0.19846492 -67.414619 -49.902256 -160.90784 -49.841022 -160.83725 -0.20069447 -70.625679
15100000000 -0.1978002 -68.236664 -49.761593 -161.53677 -49.629745 -162.24339 -0.20359048 -71.447273
15105000000 -0.20009725 -69.058449 -49.525425 -162.70869 -49.511181 -163.36827 -0.20317952 -72.264015
15110000000 -0.20163886 -69.876221 -49.421665 -163.41388 -49.375957 -164.8528 -0.20303507 -73.076942
15115000000 -0.20202979 -70.698013 -49.25658 -164.4841 -49.258968 -165.46619 -0.20342013 -73.890152
15120000000 -0.20169508 -71.509026 -49.04195 -165.54764 -49.048698 -166.46439 -0.20372513 -74.716728
15125000000 -0.19949289 -72.326462 -48.977707 -166.29469 -48.857998 -167.11034 -0.20410568 -75.532272
15130000000 -0.19912079 -73.143219 -48.859806 -167.23035 -48.699444 -167.59647 -0.20443082 -76.349197
15135000000 -0.19964895 -73.961243 -48.707508 -168.36797 -48.59095 -168.35214 -0.20528603 -77.162109
15140000000 -0.20008346 -74.781128 -48.588467 -169.38998 -48.435692 -169.46997 -0.20490079 -77.980278
15145000000 -0.20022233 -75.59642 -48.43644 -170.46242 -48.280621 -170.07719 -0.20585868 -78.795753
15150000000 -0.20005494 -76.402802 -48.242912 -171.06342 -48.154129 -170.60547 -0.20665693 -79.619209
15155000000 -0.19822137 -77.2202 -48.080009 -171.5508 -47.983856 -171.37585 -0.20729217 -80.438461
15160000000 -0.19743106 -78.031868 -47.931404 -172.33177 -47.839962 -172.358 -0.20758922 -81.255508
15165000000 -0.19659264 -78.847885 -47.737183 -172.9301 -47.718399 -172.81944 -0.20789847 -82.074387
15170000000 -0.19641483 -79.657036 -47.59219 -173.62874 -47.558796 -173.31085 -0.2070199 -82.884956
15175000000 -0.19523539 -80.455368 -47.461311 -174.20493 -47.411488 -173.86522 -0.20678897 -83.705086
15180000000 -0.19490346 -81.259438 -47.308769 -174.85406 -47.27438 -174.72725 -0.20731714 -84.524078
15185000000 -0.1955048 -82.07206 -47.15403 -175.62572 -47.133007 -175.36494 -0.20671642 -85.343109
15190000000 -0.19552107 -82.880302 -47.039745 -176.53723 -46.979286 -175.97224 -0.20728932 -86.166328
15195000000 -0.19541726 -83.685333 -46.910706 -177.39896 -46.854439 -176.82034 -0.20833504 -86.98645
15200000000 -0.19492994 -84.497635 -46.744427 -178.09631 -46.701344 -177.91498 -0.20897505 -87.800568
15205000000 -0.19378896 -85.309067 -46.609432 -179.00781 -46.537796 -178.52658 -0.20917618 -88.616051
15210000000 -0.19498439 -86.116783 -46.443123 -179.95314 -46.449238 -179.53281 -0.20803662 -89.434418
15215000000 -0.19515839 -86.92646 -46.280056 178.95796 -46.322701 179.79895 -0.20612247 -90.248367
15220000000 -0.19446738 -87.737289 -46.173374 178.20325 -46.171227 179.24821 -0.2052248 -91.06752
15225000000 -0.19398315 -88.545448 -46.010677 177.55717 -46.010689 178.69322 -0.20537764 -91.885323
15230000000 -0.19332726 -89.353134 -45.855568 176.71652 -45.855839 177.89986 -0.20440617 -92.70459
15235000000 -0.19327579 -90.16243 -45.733875 175.95409 -45.696934 177.14957 -0.20514476 -93.51712
15240000000 -0.19558364 -90.973473 -45.546272 175.0882 -45.566109 176.4366 -0.20430785 -94.333298
15245000000 -0.19615638 -91.782425 -45.369518 174.33319 -45.384766 175.61 -0.20434199 -95.146111
15250000000 -0.19638786 -92.588867 -45.241581 173.89641 -45.218071 174.61171 -0.2035366 -95.956589
15255000000 -0.1982981 -93.39238 -45.062672 173.26158 -45.078606 173.5905 -0.20307341 -96.764633
15260000000 -0.19953941 -94.196922 -44.9161 172.45064 -44.926762 172.8792 -0.20163856 -97.58577
15265000000 -0.19954637 -95.002357 -44.793251 171.53154 -44.77393 172.01849 -0.20271386 -98.399704
15270000000 -0.20088424 -95.80957 -44.642776 170.6266 -44.649895 171.1364 -0.20195088 -99.215553
15275000000 -0.20163605 -96.621033 -44.512085 169.7093 -44.508011 170.50316 -0.20186244 -100.03605
15280000000 -0.20158833 -97.429764 -44.335903 168.88776 -44.346558 169.55028 -0.20101137 -100.84943
15285000000 -0.20158283 -98.239471 -44.212872 168.03349 -44.227791 168.52718 -0.19975024 -101.67214
15290000000 -0.20406649 -99.05027 -44.068184 167.16093 -44.09248 167.72359 -0.19811003 -102.48618
15295000000 -0.20425481 -99.861374 -43.911507 166.45564 -43.955208 166.79373 -0.1967425 -103.30732
15300000000 -0.20346029 -100.66668 -43.75201 165.56767 -43.824699 165.91049 -0.19753765 -104.12637
15305000000 -0.20362452 -101.47668 -43.59132 164.99072 -43.674946 164.95197 -0.19947591 -104.93584
15310000000 -0.20424607 -102.28815 -43.436928 164.15756 -43.517429 164.30214 -0.19857946 -105.75209
15315000000 -0.20399959 -103.09274 -43.263119 163.29805 -43.372677 163.42068 -0.19722688 -106.57155
15320000000 -0.20453735 -103.89713 -43.113312 162.45444 -43.240814 162.5459 -0.19741547 -107.38845
15325000000 -0.20321831 -104.70022 -42.975784 161.68031 -43.07708 161.70711 -0.19709006 -108.20761
15330000000 -0.20309764 -105.51277 -42.845196 160.96271 -42.925476 160.93375 -0.19683549 -109.0267
15335000000 -0.20287201 -106.31352 -42.694366 160.24898 -42.786156 160.10449 -0.19662845 -109.84001
15340000000 -0.20177552 -107.13026 -42.531834 159.42831 -42.617958 159.17458 -0.19652525 -110.65925
15345000000 -0.20237039 -107.93868 -42.405125 158.57442 -42.457268 158.31628 -0.1954664 -111.47896
15350000000 -0.20187832 -108.75965 -42.253696 157.80251 -42.301411 157.58533 -0.19453803 -112.30531
15355000000 -0.2011994 -109.56989 -42.106503 156.99406 -42.151512 156.68436 -0.19452998 -113.1302
15360000000 -0.20121035 -110.37563 -41.94054 156.10965 -42.01899 155.69688 -0.19442379 -113.95714
15365000000 -0.20101322 -111.18397 -41.778492 154.97734 -41.868385 154.98834 -0.19459945 -114.78998
15370000000 -0.19885656 -111.99557 -41.62307 154.16437 -41.681862 154.27728 -0.19522564 -115.61827
15375000000 -0.19802654 -112.80547 -41.49181 153.34795 -41.534885 153.39594 -0.19564077 -116.43648
15380000000 -0.19773556 -113.61422 -41.339252 152.50473 -41.375668 152.64137 -0.19360811 -117.25689
15385000000 -0.19705077 -114.42229 -41.174873 151.65526 -41.219875 151.74417 -0.1935069 -118.07282
15390000000 -0.19660708 -115.22842 -41.010506 150.88046 -41.053444 150.70532 -0.19324428 -118.89312
15395000000 -0.19644329 -116.03679 -40.858051 150.20598 -40.886589 149.77115 -0.19277908 -119.72205
15400000000 -0.19714215 -116.84682 -40.700409 149.4281 -40.723095 148.85466 -0.19271483 -120.55
15405000000 -0.1968565 -117.66677 -40.545925 148.60797 -40.566677 148.05711 -0.19244041 -121.38258
15410000000 -0.19649254 -118.48842 -40.388992 147.76848 -40.429878 147.37778 -0.19299994 -122.20862
15415000000 -0.19708751 -119.30592 -40.262341 146.91023 -40.266529 146.51762 -0.19270317 -123.03481
15420000000 -0.19771126 -120.12808 -40.100681 145.9404 -40.10947 145.74013 -0.1914807 -123.86954
15425000000 -0.19644645 -120.94626 -39.924858 145.08257 -39.959919 144.82506 -0.19131963 -124.69464
15430000000 -0.19580814 -121.76763 -39.778481 144.26392 -39.811234 144.147 -0.19067544 -125.52115
15435000000 -0.19626369 -122.5892 -39.613407 143.52586 -39.638016 143.28305 -0.18991941 -126.35073
15440000000 -0.19694202 -123.41039 -39.46666 142.66881 -39.477627 142.5448 -0.19010527 -127.17696
15445000000 -0.1971408 -124.22403 -39.328781 141.81714 -39.320992 141.72296 -0.19060406 -128.0009
15450000000 -0.19764215 -125.04686 -39.188251 140.9435 -39.161625 140.90434 -0.19189644 -128.84012
15455000000 -0.19814499 -125.86141 -39.045177 140.10088 -39.022556 140.0975 -0.1924715 -129.67171
15460000000 -0.1981045 -126.68182 -38.886852 139.33162 -38.862797 139.31949 -0.19430304 -130.5067
15465000000 -0.19870785 -127.49557 -38.722008 138.54152 -38.709316 138.42767 -0.19495785 -131.33865
15470000000 -0.19908117 -128.32031 -38.555538 137.70389 -38.553417 137.71175 -0.19663537 -132.1799
15475000000 -0.19892058 -129.1517 -38.42009 136.95198 -38.38839 136.92441 -0.19623478 -133.01434
15480000000 -0.19907306 -129.98528 -38.261826 136.21466 -38.225983 136.15404 -0.19590828 -133.84674
15485000000 -0.20004487 -130.81909 -38.116688 135.43138 -38.083439 135.27678 -0.19488399 -134.68182
15490000000 -0.19993177 -131.65506 -37.951576 134.66512 -37.922455 134.418 -0.19426768 -135.52084
15495000000 -0.20008002 -132.48711 -37.786549 133.89255 -37.782768 133.57832 -0.1942555 -136.36029
15500000000 -0.19987546 -133.31578 -37.640285 133.06273 -37.631321 132.76468 -0.19422255 -137.202
15505000000 -0.2014259 -134.13974 -37.484421 132.25598 -37.48254 131.98642 -0.1952296 -138.03781
15510000000 -0.20171298 -134.96848 -37.327339 131.22224 -37.329903 131.18423 -0.19489689 -138.87938
15515000000 -0.2034734 -135.80013 -37.18325 130.38918 -37.177994 130.42953 -0.1953422 -139.71964
15520000000 -0.20430718 -136.63248 -37.039234 129.48553 -37.034981 129.45714 -0.19647315 -140.56329
15525000000 -0.20656818 -137.47363 -36.880779 128.60208 -36.862373 128.6102 -0.19637883 -141.4122
15530000000 -0.20683238 -138.32216 -36.708939 127.77329 -36.690697 127.8493 -0.19591704 -142.26605
15535000000 -0.2073966 -139.16745 -36.555874 127.0238 -36.529293 126.98707 -0.19520594 -143.11667
15540000000 -0.20873266 -140.01144 -36.411716 126.16849 -36.35976 126.15716 -0.19470407 -143.97607
15545000000 -0.2079668 -140.85835 -36.250134 125.28584 -36.217968 125.18286 -0.19506159 -144.8333
15550000000 -0.20711564 -141.69846 -36.091087 124.41065 -36.078785 124.35712 -0.19528413 -145.68875
15555000000 -0.20676729 -142.55301 -35.91898 123.61053 -35.922859 123.47218 -0.19478454 -146.54277
15560000000 -0.20720783 -143.39764 -35.765888 122.74896 -35.764683 122.49342 -0.19338672 -147.40048
15565000000 -0.20825848 -144.24069 -35.590237 121.86869 -35.608143 121.70376 -0.19307911 -148.25356
15570000000 -0.20829611 -145.08838 -35.427906 120.99314 -35.449024 120.87656 -0.19254844 -149.11125
15575000000 -0.20942758 -145.94243 -35.259258 120.19307 -35.302856 119.93224 -0.19212443 -149.97185
15580000000 -0.21019821 -146.80121 -35.10952 119.2793 -35.147385 118.97463 -0.19182026 -150.83452
15585000000 -0.21114242 -147.66547 -34.950603 118.37876 -34.97707 117.98895 -0.18986355 -151.69496
15590000000 -0.21155508 -148.53642 -34.779716 117.39043 -34.800659 117.08414 -0.1904211 -152.56287
15595000000 -0.21274851 -149.40659 -34.629288 116.50866 -34.645756 116.09628 -0.19035244 -153.43472
15600000000 -0.21292286 -150.27892 -34.45763 115.61366 -34.477589 115.22392 -0.19068792 -154.30379
15605000000 -0.21307294 -151.15239 -34.294949 114.72182 -34.327293 114.37405 -0.19125777 -155.17798
15610000000 -0.21303439 -152.02388 -34.1138 113.81825 -34.157902 113.40501 -0.19209258 -156.05061
15615000000 -0.2118784 -152.89294 -33.971649 112.92858 -34.001801 112.46252 -0.19301353 -156.92519
15620000000 -0.21112485 -153.76707 -33.797478 112.02062 -33.820316 111.58923 -0.19258606 -157.80344
15625000000 -0.21134603 -154.63951 -33.637074 111.22694 -33.656349 110.65138 -0.19394007 -158.67807
15630000000 -0.21009126 -155.51086 -33.461864 110.36014 -33.481491 109.76971 -0.19449204 -159.55823
15635000000 -0.21066484 -156.384 -33.288326 109.50089 -33.301662 108.93675 -0.19459067 -160.43796
15640000000 -0.21108209 -157.25575 -33.13316 108.64007 -33.136314 108.06065 -0.19566876 -161.31976
15645000000 -0.21291254 -158.13614 -32.974712 107.74911 -32.981705 107.13271 -0.19705348 -162.20445
15650000000 -0.21343599 -159.02553 -32.805367 106.85633 -32.817463 106.20545 -0.19729733 -163.09622
15655000000 -0.2124477 -159.92415 -32.648415 106.01033 -32.649021 105.27213 -0.19765565 -163.98888
15660000000 -0.21424489 -160.82098 -32.480614 105.13136 -32.475143 104.35333 -0.19770096 -164.88164
15665000000 -0.21499747 -161.72726 -32.325497 104.20009 -32.31192 103.42099 -0.19775014 -165.77286
15670000000 -0.2145793 -162.61972 -32.160027 103.27281 -32.14534 102.5112 -0.19805779 -166.66895
15675000000 -0.21529615 -163.52072 -31.978428 102.38774 -31.992477 101.64658 -0.19920506 -167.56444
15680000000 -0.21524175 -164.41707 -31.816973 101.56444 -31.815296 100.74431 -0.19978149 -168.45847
15685000000 -0.21636932 -165.31235 -31.645792 100.73574 -31.643084 99.828758 -0.20151286 -169.35587
15690000000 -0.21626768 -166.20712 -31.48768 99.828583 -31.482286 98.929169 -0.20235015 -170.25948
15695000000 -0.21676256 -167.10797 -31.30891 98.934608 -31.308531 98.144974 -0.20398845 -171.16479
15700000000 -0.21814558 -168.00844 -31.146481 97.999184 -31.148121 97.257317 -0.20563276 -172.07262
15705000000 -0.2192498 -168.91649 -30.981434 97.171783 -30.99374 96.435638 -0.20650834 -172.98567
15710000000 -0.21955122 -169.82631 -30.80739 96.301941 -30.824913 95.537582 -0.20739968 -173.89926
15715000000 -0.22043915 -170.74179 -30.642 95.406715 -30.66913 94.602844 -0.20888574 -174.82347
15720000000 -0.2214545 -171.65839 -30.470053 94.468155 -30.500105 93.6623 -0.20919633 -175.74178
15725000000 -0.22262251 -172.58412 -30.311954 93.548759 -30.328405 92.835442 -0.20966291 -176.6705
15730000000 -0.22423892 -173.50917 -30.131044 92.597954 -30.159641 91.968712 -0.21003805 -177.59679
15735000000 -0.22437473 -174.43861 -29.972721 91.680748 -30.003927 91.062393 -0.20940103 -178.51907
15740000000 -0.22470807 -175.36588 -29.816662 90.70623 -29.825426 90.144905 -0.20890652 -179.44875
15745000000 -0.22552958 -176.29463 -29.641533 89.768196 -29.66168 89.222557 -0.20885541 179.62231
15750000000 -0.22695912 -177.22546 -29.484617 88.817024 -29.491156 88.305626 -0.209567 178.69165
15755000000 -0.22751041 -178.15788 -29.308397 87.861748 -29.324516 87.378059 -0.21061543 177.75729
15760000000 -0.2282185 -179.09164 -29.136353 86.950996 -29.153315 86.492004 -0.21233355 176.81688
15765000000 -0.22887647 179.9709 -28.969833 86.019257 -28.981651 85.512741 -0.21426606 175.87857
15770000000 -0.23022574 179.03008 -28.796673 85.088959 -28.811056 84.619354 -0.21599954 174.93771
15775000000 -0.23166047 178.08405 -28.627396 84.145195 -28.643032 83.716354 -0.21762636 173.99158
15780000000 -0.2324446 177.13719 -28.445499 83.192726 -28.468861 82.770584 -0.21899927 173.03975
15785000000 -0.23343235 176.18217 -28.277271 82.213303 -28.301216 81.801399 -0.21954115 172.08487
15790000000 -0.23383772 175.229 -28.106516 81.232887 -28.121099 80.898972 -0.22146149 171.12764
15795000000 -0.23440827 174.26515 -27.937597 80.278465 -27.948746 79.938873 -0.221709 170.16838
15800000000 -0.23543052 173.30562 -27.764561 79.302628 -27.777582 78.944969 -0.22243874 169.20726
15805000000 -0.23737827 172.3495 -27.588812 78.331551 -27.595007 77.96228 -0.22296524 168.24667
15810000000 -0.23877048 171.3884 -27.417332 77.311897 -27.430719 77.002808 -0.22406343 167.28276
15815000000 -0.23955235 170.42339 -27.249805 76.377274 -27.256174 76.05735 -0.22478309 166.31494
15820000000 -0.2416741 169.45837 -27.067638 75.353683 -27.082537 75.046188 -0.22604153 165.34641
15825000000 -0.24432327 168.48438 -26.897856 74.370255 -26.906172 74.095146 -0.22743867 164.36577
15830000000 -0.24663746 167.50934 -26.722403 73.340195 -26.72998 73.151665 -0.22956294 163.39078
15835000000 -0.24821712 166.52745 -26.548752 72.38147 -26.555792 72.14399 -0.23093398 162.40512
15840000000 -0.24934326 165.54033 -26.371212 71.381042 -26.384996 71.143951 -0.23258518 161.42232
15845000000 -0.25002965 164.54871 -26.191444 70.38839 -26.201994 70.137207 -0.23311956 160.43933
15850000000 -0.25025821 163.56412 -26.011534 69.35537 -26.02614 69.119034 -0.23577128 159.44559
15855000000 -0.25198412 162.57211 -25.82756 68.367516 -25.85359 68.103233 -0.23666826 158.45671
15860000000 -0.25363761 161.58185 -25.651062 67.326866 -25.681664 67.102341 -0.23857906 157.46213
15865000000 -0.25479048 160.58434 -25.469955 66.317116 -25.505983 66.104446 -0.23973028 156.46382
15870000000 -0.25699845 159.58479 -25.291542 65.325218 -25.330193 65.09169 -0.24131875 155.46162
15875000000 -0.25891677 158.58134 -25.112221 64.288475 -25.154293 64.046532 -0.24259055 154.4586
15880000000 -0.2609382 157.57387 -24.934675 63.23082 -24.980761 63.065418 -0.24468884 153.44791
15885000000 -0.26376793 156.5607 -24.760618 62.185684 -24.803143 62.016876 -0.245846 152.42894
15890000000 -0.26539597 155.54056 -24.579683 61.159939 -24.621407 60.979839 -0.24718809 151.40634
15895000000 -0.26777613 154.51518 -24.402859 60.103863 -24.442062 59.981808 -0.24850686 150.37723
15900000000 -0.26939797 153.48645 -24.223099 59.11673 -24.261532 58.973335 -0.2501964 149.34808
15905000000 -0.27082118 152.45152 -24.045052 58.081844 -24.086884 57.922867 -0.25164574 148.31319
15910000000 -0.27242434 151.41644 -23.860737 57.030769 -23.911514 56.895084 -0.25312936 147.27713
15915000000 -0.27277127 150.37689 -23.67976 55.967419 -23.734261 55.843075 -0.25512391 146.24377
15920000000 -0.27395669 149.32892 -23.498466 54.933411 -23.556393 54.755665 -0.25730678 145.20808
15925000000 -0.27574515 148.28732 -23.317228 53.896301 -23.374966 53.697624 -0.25869352 144.1656
15930000000 -0.27733061 147.23903 -23.13402 52.844444 -23.188854 52.626907 -0.26105982 143.12074
15935000000 -0.27986079 146.18567 -22.955034 51.814594 -23.003819 51.564571 -0.26349854 142.0685
15940000000 -0.28204721 145.13074 -22.772896 50.75663 -22.820904 50.485996 -0.26576123 141.01494
15945000000 -0.28336856 144.06993 -22.590158 49.688839 -22.636786 49.397499 -0.26672995 139.94823
15950000000 -0.28527674 143.004 -22.410677 48.61031 -22.454079 48.312084 -0.26995587 138.87947
15955000000 -0.28841043 141.93733 -22.231281 47.528297 -22.2686 47.211987 -0.27239943 137.80301
15960000000 -0.29159197 140.86565 -22.048523 46.466583 -22.087917 46.139362 -0.27540436 136.71619
15965000000 -0.29539907 139.77879 -21.868887 45.382675 -21.906113 45.026222 -0.27673829 135.63052
15970000000 -0.29740521 138.69435 -21.690271 44.284664 -21.725187 43.938831 -0.27941814 134.53947
15975000000 -0.29929945 137.60258 -21.510231 43.192001 -21.539606 42.843369 -0.28236425 133.44861
15980000000 -0.30143711 136.51347 -21.324825 42.080219 -21.355881 41.742481 -0.28500149 132.35565
15985000000 -0.30434036 135.41762 -21.140566 40.975693 -21.171648 40.649143 -0.28720006 131.2587
15990000000 -0.30739608 134.31519 -20.957169 39.880726 -20.983696 39.554188 -0.28911263 130.16066
15995000000 -0.31036255 133.21474 -20.770037 38.767677 -20.794659 38.419765 -0.2906509 129.05762
16000000000 -0.31404042 132.10909 -20.584736 37.661011 -20.609484 37.288124 -0.29490897 127.94576
