# GHz  S  MA  R  50
!  f         S11            S21            S12            S22
! GHz     MAG   ANG      MAG   ANG      MAG   ANG      MAG   ANG
 0.010  0.4865  -17.2  33.539  170.4  0.0036   84.8  0.9643   -5.2
 0.020  0.4826  -34.1  32.185  161.0  0.0069   77.8  0.9368  -10.4
 0.050  0.4568  -74.5  26.349  139.0  0.0145   65.6  0.8029  -20.8
 0.100  0.4285 -114.2  17.955  118.1  0.0214   59.3  0.6260  -25.6
 0.150  0.4207 -134.9  13.079  107.1  0.0265   59.9  0.5396  -24.8
 0.200  0.4134 -147.8  10.153   99.9  0.0315   61.8  0.4969  -23.2
 0.250  0.4137 -156.4   8.262   94.8  0.0367   64.1  0.4728  -22.0
 0.300  0.4149 -162.6   6.973   90.7  0.0418   65.6  0.4580  -21.1
 0.400  0.4165 -172.3   5.294   84.2  0.0523   68.0  0.4424  -20.7
 0.500  0.4212 -178.8   4.263   78.8  0.0634   69.3  0.4341  -21.2
 0.600  0.4282  175.7   3.567   74.1  0.0741   70.1  0.4291  -22.3
 0.700  0.4338  170.9   3.080   69.8  0.0852   70.4  0.4257  -23.8
 0.800  0.4412  166.8   2.710   65.8  0.0957   70.4  0.4236  -25.6
 0.900  0.4490  162.8   2.421   61.9  0.1066   70.2  0.4216  -27.7
 1.000  0.4561  159.1   2.194   58.1  0.1173   70.0  0.4200  -30.0
 1.100  0.4685  155.7   2.010   54.5  0.1279   70.0  0.4189  -32.5
 1.200  0.4783  152.4   1.850   51.1  0.1390   69.5  0.4179  -35.0
 1.300  0.4821  149.1   1.714   47.9  0.1499   69.2  0.4163  -37.8
 1.400  0.4930  146.2   1.608   45.0  0.1609   68.9  0.4157  -40.5
 1.500  0.5044  142.9   1.507   41.7  0.1720   68.3  0.4148  -43.4
 1.600  0.5109  140.3   1.424   39.0  0.1837   67.8  0.4132  -46.5
 1.700  0.5169  137.6   1.346   35.7  0.1954   67.3  0.4123  -49.7
 1.800  0.5281  134.5   1.275   33.4  0.2075   66.7  0.4116  -52.8
 1.900  0.5359  131.7   1.210   30.7  0.2202   66.0  0.4097  -56.2
 2.000  0.5433  128.9   1.153   28.6  0.2325   65.3  0.4095  -59.6
 2.200  0.5600  123.2   1.061   23.2  0.2594   63.8  0.4080  -66.7
 2.400  0.5780  118.2   0.974   19.2  0.2869   61.8  0.4057  -74.3
 2.600  0.5927  113.0   0.913   15.3  0.3152   59.6  0.4039  -82.2
 2.800  0.6022  108.3   0.848   12.1  0.3452   57.1  0.4027  -90.5
 3.000  0.6193  103.4   0.793    9.0  0.3748   54.4  0.4004  -99.0
!
! SIEMENS AG  Semiconductor Group, Munich
