#  HZ   S   DB   R     50.00 
! freq[Hz]                db:S11                  ang:S11                 db:S21                  ang:S21                 db:S12                  ang:S12                 db:S22                  ang:S22
 2.750000000000000E+10  -4.811689007015283E1    -8.246372023609969E1    -1.143112022385255E-1    1.419190895238026E2    -1.139236227090105E-1    1.420461022786710E2    -4.533953771553580E1     1.786549155756427E2
 2.750500000000000E+10  -4.667653650748154E1    -9.000498396658598E1    -1.144634950053390E-1    1.400194691486631E2    -1.137937745178037E-1    1.400479646190763E2    -4.460714783482359E1    -1.796142178657859E2
 2.751000000000000E+10  -4.548535413793412E1    -9.655997564785930E1    -1.141855936169619E-1    1.380996303932162E2    -1.144492144967902E-1    1.381057594282622E2    -4.372537697888534E1    -1.795077775105494E2
 2.751500000000000E+10  -4.436825559875959E1    -9.971631866443340E1    -1.138591800170538E-1    1.361474712573453E2    -1.143795425029563E-1    1.361331468388772E2    -4.301773513503054E1    -1.785152061949871E2
 2.752000000000000E+10  -4.344049883068288E1    -1.030699378520858E2    -1.146164100165782E-1    1.341528289439773E2    -1.144542377954956E-1    1.341737632107951E2    -4.227242325899404E1    -1.784304969300078E2
 2.752500000000000E+10  -4.243617082615324E1    -1.048114885589566E2    -1.135580141776143E-1    1.321877667758772E2    -1.143910205340724E-1    1.322058865215841E2    -4.154789292460955E1    -1.781750050878921E2
 2.753000000000000E+10  -4.179478219459172E1    -1.063822052213793E2    -1.128256966213408E-1    1.302544534656514E2    -1.136216233458988E-1    1.302508633685144E2    -4.113290436088251E1    -1.791664911608362E2
 2.753500000000000E+10  -4.107283584671902E1    -1.088209604153649E2    -1.129114942428792E-1    1.282753924989348E2    -1.141118690669207E-1    1.283193500966006E2    -4.063472682286630E1     1.799092091106376E2
 2.754000000000000E+10  -4.070507167794764E1    -1.099638008278848E2    -1.133041823267260E-1    1.263363640708322E2    -1.145975876170448E-1    1.263693019934370E2    -4.019130704980781E1     1.778987681280178E2
 2.754500000000000E+10  -4.026690881467034E1    -1.114238163952421E2    -1.137618168200328E-1    1.244004684641094E2    -1.145398292892738E-1    1.243998030656246E2    -3.983513518127437E1     1.767163735107005E2
 2.755000000000000E+10  -3.999864887313785E1    -1.131401576100899E2    -1.142760295142084E-1    1.224751477105269E2    -1.142720581933955E-1    1.224144101211454E2    -3.943523349024818E1     1.759200346113906E2
 2.755500000000000E+10  -3.974841090343689E1    -1.152917022849210E2    -1.144566502924954E-1    1.204934186552881E2    -1.151608789189539E-1    1.204907817284102E2    -3.909806430210308E1     1.747989384823117E2
 2.756000000000000E+10  -3.959035917726854E1    -1.167114298881015E2    -1.138798859905524E-1    1.185433059140447E2    -1.145044786336648E-1    1.185361704026284E2    -3.890037526063787E1     1.736627855670309E2
 2.756500000000000E+10  -3.934645010579540E1    -1.192964219239983E2    -1.140562758616426E-1    1.165803432429924E2    -1.148049180562114E-1    1.165930090758831E2    -3.854919565390942E1     1.725838967465441E2
 2.757000000000000E+10  -3.927674386973709E1    -1.221549507710809E2    -1.129271269220522E-1    1.146372165219730E2    -1.135822964271875E-1    1.146052970073280E2    -3.837750537330897E1     1.712853847231424E2
 2.757500000000000E+10  -3.912177996381791E1    -1.247603956149423E2    -1.127429459217009E-1    1.127102462522304E2    -1.140381063540839E-1    1.126401912698658E2    -3.815343853371039E1     1.705087164362272E2
 2.758000000000000E+10  -3.887830127755122E1    -1.282089666203951E2    -1.130402388040717E-1    1.107155701998792E2    -1.140275431493924E-1    1.107258414155978E2    -3.791961571402141E1     1.696282050215879E2
 2.758500000000000E+10  -3.874579358040630E1    -1.314437540528756E2    -1.133627328512251E-1    1.087784946894205E2    -1.136812514700474E-1    1.087428509682713E2    -3.771656934595556E1     1.685368599377318E2
 2.759000000000000E+10  -3.843446701577082E1    -1.351015289597951E2    -1.144382864004450E-1    1.068035401133874E2    -1.135935425264077E-1    1.068158046201724E2    -3.748132309717715E1     1.676079839145437E2
 2.759500000000000E+10  -3.816376925856695E1    -1.382256126323492E2    -1.148457245953128E-1    1.048555727918775E2    -1.143830373798776E-1    1.048549346583325E2    -3.727073893958506E1     1.663703184362550E2
 2.760000000000000E+10  -3.791414007959992E1    -1.412077209664436E2    -1.150142311387227E-1    1.029217729409774E2    -1.151145814071767E-1    1.029033032892752E2    -3.706974441353597E1     1.653211870314812E2
 2.760500000000000E+10  -3.764740742635831E1    -1.442768890371850E2    -1.146151258127553E-1    1.009380289626421E2    -1.152806349996251E-1    1.009339113420987E2    -3.683028285266525E1     1.645710570031981E2
 2.761000000000000E+10  -3.730060146449821E1    -1.464174002073003E2    -1.138162054694187E-1    9.897515581835859E1    -1.148163619640209E-1    9.900294180620543E1    -3.668727023864368E1     1.626389320683068E2
 2.761500000000000E+10  -3.700719510879724E1    -1.488649352285362E2    -1.143873559456896E-1    9.702015437336411E1    -1.138923892084652E-1    9.702415042073929E1    -3.642957090773145E1     1.611835958135590E2
 2.762000000000000E+10  -3.676161569751947E1    -1.506073921373654E2    -1.140667190342356E-1    9.507227603978077E1    -1.132718276891436E-1    9.507506808699044E1    -3.629885624151741E1     1.595117119450103E2
 2.762500000000000E+10  -3.650264850610225E1    -1.527233623764890E2    -1.131505720002883E-1    9.312008380785164E1    -1.142335957234326E-1    9.311742564266400E1    -3.610457304877649E1     1.580376195029948E2
 2.763000000000000E+10  -3.625979060904706E1    -1.544944556863639E2    -1.139618521113936E-1    9.116138817269315E1    -1.141203601946378E-1    9.120141677903069E1    -3.598229931845702E1     1.562492410005363E2
 2.763500000000000E+10  -3.612316066244402E1    -1.561626734907760E2    -1.144099742377878E-1    8.921210768012105E1    -1.146812539875704E-1    8.925367541970857E1    -3.588346123624636E1     1.545485918007848E2
 2.764000000000000E+10  -3.602448251732622E1    -1.576785582713354E2    -1.147444531607123E-1    8.725223554188520E1    -1.151931387569954E-1    8.728753152117575E1    -3.581580527416170E1     1.530043195189879E2
 2.764500000000000E+10  -3.592024356290328E1    -1.592188373457354E2    -1.159551242547690E-1    8.530337795047670E1    -1.153262172223620E-1    8.535943243096683E1    -3.574173696877661E1     1.509135763917827E2
 2.765000000000000E+10  -3.591479578156342E1    -1.604967637633528E2    -1.151746870758528E-1    8.334666239593898E1    -1.149569338831243E-1    8.337881028817893E1    -3.568890666358929E1     1.490798423774712E2
 2.765500000000000E+10  -3.591683509935824E1    -1.621056978825816E2    -1.141789397784783E-1    8.142506139140811E1    -1.141238428454751E-1    8.144916218148859E1    -3.564954074293447E1     1.477663421678208E2
 2.766000000000000E+10  -3.594099921623248E1    -1.638805202889170E2    -1.142371864572547E-1    7.946052052366508E1    -1.142833905075871E-1    7.950481245096660E1    -3.566966910109426E1     1.460360316766419E2
 2.766500000000000E+10  -3.605041260160843E1    -1.660970428501884E2    -1.138524725178621E-1    7.750981093195526E1    -1.144089958623436E-1    7.756911607589720E1    -3.565772283885757E1     1.444716898736251E2
 2.767000000000000E+10  -3.610251131013793E1    -1.678838835266430E2    -1.143718541765376E-1    7.556927773504268E1    -1.144695516838399E-1    7.560410647572219E1    -3.571633247864509E1     1.428581001632770E2
 2.767500000000000E+10  -3.622445516580389E1    -1.711888336095816E2    -1.140315372982063E-1    7.363401496797374E1    -1.140825567231158E-1    7.365847995573355E1    -3.572096619923011E1     1.415229264521208E2
 2.768000000000000E+10  -3.631433844229014E1    -1.738034143765307E2    -1.143877898645680E-1    7.168220836722809E1    -1.149580646985293E-1    7.171001417907276E1    -3.573611363188414E1     1.403467920745296E2
 2.768500000000000E+10  -3.642705190869315E1    -1.763384871809776E2    -1.148351375088291E-1    6.970654860547596E1    -1.143142748880477E-1    6.972585699743706E1    -3.575953598844014E1     1.390922179145658E2
 2.769000000000000E+10  -3.648008813579635E1    -1.794383986373758E2    -1.143359141281053E-1    6.776255741861543E1    -1.147573254754355E-1    6.779649309216532E1    -3.576326527324996E1     1.378608915110422E2
 2.769500000000000E+10  -3.659261253176007E1     1.772412418042541E2    -1.145141297834257E-1    6.581389118123735E1    -1.147821388134815E-1    6.588620248371862E1    -3.578508248973150E1     1.368796993763639E2
 2.770000000000000E+10  -3.648790508259702E1     1.745988895337376E2    -1.135619139359483E-1    6.386915674759287E1    -1.143654727755244E-1    6.391518422315223E1    -3.585259383339486E1     1.357067985780917E2
 2.770500000000000E+10  -3.653524727352563E1     1.715814968409296E2    -1.138563461432788E-1    6.192601567423348E1    -1.139129899687975E-1    6.195758957277474E1    -3.585466315909282E1     1.347162115061646E2
 2.771000000000000E+10  -3.653963500733471E1     1.686459535413275E2    -1.131648371092930E-1    5.996732998481196E1    -1.136795584408107E-1    5.999349091588844E1    -3.588356148330107E1     1.335402557955613E2
 2.771500000000000E+10  -3.648047350450617E1     1.657226876798801E2    -1.130720827633421E-1    5.806712184419231E1    -1.135052353038882E-1    5.804409760930989E1    -3.588093516118690E1     1.324746728472563E2
 2.772000000000000E+10  -3.646770823851614E1     1.632136574911295E2    -1.132608047462610E-1    5.611531251961562E1    -1.147085464482314E-1    5.606660906510114E1    -3.596888351546178E1     1.311814468187919E2
 2.772500000000000E+10  -3.645646729571123E1     1.608858019949996E2    -1.151727900591979E-1    5.412361346238835E1    -1.140777987311783E-1    5.411958204690545E1    -3.600388144981039E1     1.297433570922471E2
 2.773000000000000E+10  -3.645806966466868E1     1.580658084171118E2    -1.149470613773391E-1    5.217042178015197E1    -1.149376700582737E-1    5.218084569851168E1    -3.605071302717548E1     1.287639287420237E2
 2.773500000000000E+10  -3.646185051111807E1     1.558993101913339E2    -1.143110573081359E-1    5.023972703678520E1    -1.142092002133468E-1    5.024286856260872E1    -3.611577882008923E1     1.273022387986655E2
 2.774000000000000E+10  -3.655442154543616E1     1.534761439963156E2    -1.141753610354958E-1    4.828686465124389E1    -1.147676943383073E-1    4.830736766182578E1    -3.626712979423849E1     1.259008535844754E2
 2.774500000000000E+10  -3.660959580270983E1     1.511588451657020E2    -1.145677782536955E-1    4.632345022196207E1    -1.134244838322053E-1    4.636234202249357E1    -3.634354010166623E1     1.249484323928034E2
 2.775000000000000E+10  -3.668209064694841E1     1.491488408107730E2    -1.130471954638306E-1    4.443921309637604E1    -1.134100629936489E-1    4.441213459215047E1    -3.639074786793031E1     1.232828074422706E2
 2.775500000000000E+10  -3.678390682121148E1     1.464308333122492E2    -1.136412051265013E-1    4.243980380986785E1    -1.132703830857450E-1    4.246137036596181E1    -3.647660018471106E1     1.223196627952229E2
 2.776000000000000E+10  -3.690335495862789E1     1.441687887824303E2    -1.130057073587634E-1    4.052310263922652E1    -1.136231684023673E-1    4.051180356986690E1    -3.661977585677023E1     1.208268873539406E2
 2.776500000000000E+10  -3.705612492355201E1     1.422333422648441E2    -1.133751377145109E-1    3.855773835900875E1    -1.138265714104763E-1    3.854969556163084E1    -3.676143758990823E1     1.198667262058812E2
 2.777000000000000E+10  -3.727836822408803E1     1.395131408733319E2    -1.142948105045563E-1    3.662771762320101E1    -1.133237457524561E-1    3.661294884967783E1    -3.698637853742719E1     1.186713691758854E2
 2.777500000000000E+10  -3.741075727473314E1     1.371248058200077E2    -1.135729618732388E-1    3.470315427356620E1    -1.126863491755699E-1    3.468348575603394E1    -3.709436823696316E1     1.176504623042732E2
 2.778000000000000E+10  -3.767552523901144E1     1.342532788539453E2    -1.138459518502320E-1    3.271748611949509E1    -1.136813032779720E-1    3.269881308730828E1    -3.725361283890074E1     1.165490864915261E2
 2.778500000000000E+10  -3.786266849384263E1     1.317290948750702E2    -1.138902672683225E-1    3.079051007925120E1    -1.141759836876666E-1    3.079321529320205E1    -3.742213199735443E1     1.157145709438345E2
 2.779000000000000E+10  -3.800930226361237E1     1.279515484172782E2    -1.130987691138832E-1    2.882472859435541E1    -1.132363679655492E-1    2.881858537334874E1    -3.760823480511917E1     1.149560260925797E2
 2.779500000000000E+10  -3.828566263344442E1     1.249007069319532E2    -1.126007114089793E-1    2.690755633390642E1    -1.136329284918839E-1    2.687844922875641E1    -3.781731990159660E1     1.140412339286617E2
 2.780000000000000E+10  -3.851062681452492E1     1.219690408721572E2    -1.127849487030878E-1    2.494248906854568E1    -1.130320219055300E-1    2.495208298682434E1    -3.799814745661805E1     1.131101632965561E2
 2.780500000000000E+10  -3.876545335395802E1     1.187601893290089E2    -1.128561266769417E-1    2.301443809966752E1    -1.133403286073388E-1    2.298848676580632E1    -3.824938952847434E1     1.125780145756523E2
 2.781000000000000E+10  -3.897676000803685E1     1.150268539905429E2    -1.127741336460644E-1    2.105557989948258E1    -1.132822960377557E-1    2.105087492099558E1    -3.841857206131443E1     1.118440206304123E2
 2.781500000000000E+10  -3.918581915737862E1     1.116351652448373E2    -1.140680300006168E-1    1.914272150960494E1    -1.123828789961330E-1    1.910770833279340E1    -3.858768195004690E1     1.115672414202286E2
 2.782000000000000E+10  -3.921348341531478E1     1.080274889494789E2    -1.134006594069359E-1    1.719148678087954E1    -1.131234174248632E-1    1.717583708263125E1    -3.880554179740293E1     1.108691005508085E2
 2.782500000000000E+10  -3.952685041203161E1     1.053356201576685E2    -1.137378566550565E-1    1.525151068213247E1    -1.129723773459734E-1    1.520169373679575E1    -3.902600453194195E1     1.104178240484720E2
 2.783000000000000E+10  -3.973502387255610E1     1.018726583512756E2    -1.136900190864140E-1    1.329778165598318E1    -1.128742583023129E-1    1.325625980078135E1    -3.916342531792352E1     1.106994864563420E2
 2.783500000000000E+10  -3.991587106633469E1     9.855692449978191E1    -1.137295460872163E-1    1.133311843120678E1    -1.136606141231200E-1    1.133597822545500E1    -3.940822636029487E1     1.099996993582282E2
 2.784000000000000E+10  -4.009576727038935E1     9.475087799876457E1    -1.131369571022851E-1    9.373285597137960      -1.134678932613136E-1    9.355780620126927      -3.956630733083475E1     1.096406034849573E2
 2.784500000000000E+10  -4.016832614147353E1     9.175122068541098E1    -1.133673304828055E-1    7.453945193231280      -1.136174439368138E-1    7.415570738828500      -3.973643555194409E1     1.102773966719958E2
 2.785000000000000E+10  -4.035471015373597E1     8.836228507452884E1    -1.128933340920448E-1    5.510390285498989      -1.129789527877318E-1    5.473424772066253      -4.004241011547308E1     1.094658002509416E2
 2.785500000000000E+10  -4.050726308251383E1     8.537169903317384E1    -1.131356218944137E-1    3.529392120151789      -1.120409447019581E-1    3.530420130994699      -4.019411535556664E1     1.092549062060797E2
 2.786000000000000E+10  -4.063499893120024E1     8.144298861328325E1    -1.131325053682625E-1    1.621334396007341      -1.128505302656616E-1    1.611389129316215      -4.044791735861110E1     1.083582048431418E2
 2.786500000000000E+10  -4.098377165182755E1     7.913783390247737E1    -1.130803608083328E-1   -3.231512016368530E-1   -1.129246598824738E-1   -3.293940689069595E-1   -4.071849591119946E1     1.080737547231442E2
 2.787000000000000E+10  -4.108845441621423E1     7.579398433093472E1    -1.133260505186303E-1   -2.271235141192796      -1.130906360091486E-1   -2.260216727035857      -4.097870067488810E1     1.073056134737218E2
 2.787500000000000E+10  -4.148938095145293E1     7.303887913166629E1    -1.136140162382556E-1   -4.196353521026221      -1.127851163709796E-1   -4.200386720900745      -4.124625596207618E1     1.068110965522299E2
 2.788000000000000E+10  -4.174886307803053E1     7.076413512069881E1    -1.133263506317878E-1   -6.100916369815574      -1.128633050930898E-1   -6.167054068270503      -4.168123032894998E1     1.071294048837270E2
 2.788500000000000E+10  -4.207566293380705E1     6.781169385239858E1    -1.134284540225347E-1   -8.094462404069308      -1.132772348817078E-1   -8.062457595725567      -4.196364727440699E1     1.069528528600815E2
 2.789000000000000E+10  -4.247660295827149E1     6.552940616511368E1    -1.137477577408388E-1   -1.002432749224639E1    -1.125061530396879E-1   -1.004073250000392E1    -4.241996091327736E1     1.065228208782940E2
 2.789500000000000E+10  -4.312031788187069E1     6.197394836783921E1    -1.134809557461318E-1   -1.198284757178764E1    -1.127788556561312E-1   -1.196945134769715E1    -4.275750424834526E1     1.075577388868696E2
 2.790000000000000E+10  -4.366145376053861E1     5.963770839610557E1    -1.132573653104800E-1   -1.390242375007242E1    -1.131174894218744E-1   -1.388624248396285E1    -4.341399544354668E1     1.075502861853931E2
 2.790500000000000E+10  -4.433332260045573E1     5.580325788973943E1    -1.130713726033704E-1   -1.582646411981975E1    -1.129684667609841E-1   -1.583717680343127E1    -4.389345743286534E1     1.086424097948733E2
 2.791000000000000E+10  -4.504906741085441E1     5.188774400793272E1    -1.124096984115904E-1   -1.778284630808605E1    -1.130658908896053E-1   -1.780218054074452E1    -4.434530284796629E1     1.107571961889143E2
 2.791500000000000E+10  -4.591091312290612E1     4.729153418896974E1    -1.125035101284826E-1   -1.968819903749060E1    -1.121503106255381E-1   -1.974459267855712E1    -4.490108128603293E1     1.129600211373097E2
 2.792000000000000E+10  -4.683215155811391E1     4.102187915814773E1    -1.127874440241629E-1   -2.164698493898050E1    -1.125890947026437E-1   -2.167687187125522E1    -4.555810934438986E1     1.153637289463694E2
 2.792500000000000E+10  -4.799808945909390E1     3.330005402737876E1    -1.121091119370961E-1   -2.357742640386747E1    -1.119806235444625E-1   -2.361092937175404E1    -4.597432845425780E1     1.191397580865997E2
 2.793000000000000E+10  -4.900176348534397E1     2.433815563043597E1    -1.129188849404705E-1   -2.551830818597726E1    -1.113986489721281E-1   -2.555023711728948E1    -4.642826094152656E1     1.232997159701911E2
 2.793500000000000E+10  -4.967553633339981E1     1.430885499831103E1    -1.122985622897196E-1   -2.744471742258980E1    -1.109270418947968E-1   -2.750304249640645E1    -4.652479462623052E1     1.289447982371339E2
 2.794000000000000E+10  -5.023971100809872E1     1.333032440283505      -1.120623923764433E-1   -2.937087693765692E1    -1.125335606159868E-1   -2.944660079576360E1    -4.656635620817152E1     1.326844273982214E2
 2.794500000000000E+10  -5.005347377914664E1    -1.186465703576856E1    -1.123928968771591E-1   -3.129764005808946E1    -1.117989187596948E-1   -3.136164951898250E1    -4.656601985454002E1     1.394049965545751E2
 2.795000000000000E+10  -5.016671666894063E1    -2.481079566219521E1    -1.114748534833472E-1   -3.324002062149306E1    -1.123116568052356E-1   -3.329351173684812E1    -4.649382079266889E1     1.429811944680996E2
 2.795500000000000E+10  -4.956749248377405E1    -3.514807975430017E1    -1.119728477429758E-1   -3.516797299674134E1    -1.128426483667425E-1   -3.523144996857254E1    -4.621061937414832E1     1.475898319576137E2
